#  HZ   S   DB   R     50.00 
! Rohde & Schwarz Vector Network Analyzer 
! Rohde-Schwarz,ZNL3-2Port,1323001203101687,1.37.1.9-20.11.2.22
! Created: UTC 11/14/2023, 3:56:15 PM
! freq[Hz]                db:S11                  ang:S11                 db:S21                  ang:S21                 db:S12                  ang:S12                 db:S22                  ang:S22
 2.500000000000000E8    -1.187805863891510E1     9.128390593710922E1    -4.749542494176736       9.397916581181954E1    -4.754537518783771       9.358978351895159E1    -3.810525172222831      -1.234088087391727E1
 2.501250000000000E8    -1.187964845467708E1     9.117619489986075E1    -4.743211990374266       9.392729396517558E1    -4.747124550813115       9.353548573492868E1    -3.814188793611486      -1.245145099849066E1
 2.502500000000000E8    -1.188166491272554E1     9.106442649037365E1    -4.736938125036529       9.387199857624371E1    -4.740968148013475       9.347865894067353E1    -3.818046788136216      -1.255663939092280E1
 2.503750000000000E8    -1.188414840885932E1     9.095410783457206E1    -4.730598932918561       9.381823669185017E1    -4.734542743679570       9.342556230929976E1    -3.821692931718847      -1.266089978280493E1
 2.505000000000000E8    -1.188687869526728E1     9.084907716476239E1    -4.724279918398326       9.376353167700552E1    -4.728331888867769       9.337081227058535E1    -3.825753859895048      -1.276909340093065E1
 2.506250000000000E8    -1.188896770561190E1     9.073229110196286E1    -4.718151587135251       9.371065697367706E1    -4.722238658938635       9.331788966675337E1    -3.829305757743069      -1.287568611691675E1
 2.507500000000000E8    -1.189103927971430E1     9.062287830096226E1    -4.711944630037626       9.365404864794468E1    -4.716423698959421       9.326252794551047E1    -3.832956231032666      -1.298265398843014E1
 2.508750000000000E8    -1.189377338149612E1     9.051893561401761E1    -4.706191917840489       9.360015626426078E1    -4.710202461641163       9.320815275160815E1    -3.837294580085941      -1.308820484473523E1
 2.510000000000000E8    -1.189671735071837E1     9.040884811946776E1    -4.700053099076157       9.354422922100193E1    -4.704155045592151       9.315307720397095E1    -3.840948527893699      -1.319262908763028E1
 2.511250000000000E8    -1.189875494450751E1     9.030337469946210E1    -4.693785065799392       9.349192810471055E1    -4.698025608801265       9.310019817349594E1    -3.845064512715735      -1.329929879934221E1
 2.512500000000000E8    -1.190100281757029E1     9.019093019859034E1    -4.687722703168765       9.343859863896301E1    -4.692071270383095       9.304684442708577E1    -3.848756587431149      -1.340466707759650E1
 2.513750000000000E8    -1.190364105794123E1     9.009538270947783E1    -4.681706858521571       9.338539502732057E1    -4.686233090600883       9.299140359657616E1    -3.852678537118699      -1.350831148700445E1
 2.515000000000000E8    -1.190609287710992E1     8.997772674773240E1    -4.675733706665049       9.332878075652407E1    -4.679992476700710       9.293776868243515E1    -3.856844524560973      -1.361343840445051E1
 2.516250000000000E8    -1.190881824384420E1     8.986511460948145E1    -4.669863466220915       9.327642225797467E1    -4.673831801635515       9.288497877101091E1    -3.860908491591445      -1.371610530204039E1
 2.517500000000000E8    -1.191021848845641E1     8.975972848242404E1    -4.663704397008663       9.322099044565064E1    -4.667822745247864       9.283071750058039E1    -3.864824538081739      -1.382162640767593E1
 2.518750000000000E8    -1.191351216567894E1     8.964846944136376E1    -4.657662079536263       9.316627439548394E1    -4.661837614970431       9.277675802863135E1    -3.868921943111679      -1.392552891623909E1
 2.520000000000000E8    -1.191558934214608E1     8.954482425523261E1    -4.651573185733514       9.311063311054170E1    -4.656009303664523       9.272225891189770E1    -3.872498020079299      -1.402953843732184E1
 2.521250000000000E8    -1.191820850960265E1     8.944080813440178E1    -4.645627932973654       9.305595144503815E1    -4.649907304536866       9.266891516186493E1    -3.876513420830003      -1.413461037230544E1
 2.522500000000000E8    -1.192117883478931E1     8.933013594988311E1    -4.639701497193927       9.300313194909771E1    -4.643653374178855       9.261341206856035E1    -3.880294463523948      -1.423787603405280E1
 2.523750000000000E8    -1.192325470019316E1     8.921825845167275E1    -4.633558255479363       9.294915634236479E1    -4.637655274113434       9.256002156825018E1    -3.884459316119685      -1.434309425793445E1
 2.525000000000000E8    -1.192500277873892E1     8.911794248608152E1    -4.627668009589021       9.289473911579988E1    -4.631678886222180       9.250645391516061E1    -3.888394650629463      -1.444576859396557E1
 2.526250000000000E8    -1.192734518719259E1     8.901096323272679E1    -4.621789960259258       9.284032453831338E1    -4.626111840282922       9.245275679310758E1    -3.892302604932406      -1.454950858346319E1
 2.527500000000000E8    -1.192871154156558E1     8.890847574405818E1    -4.615423847638796       9.278689961460154E1    -4.620071042667640       9.239997264046761E1    -3.896606944930428      -1.465378347931642E1
 2.528750000000000E8    -1.193299024350890E1     8.878954429482860E1    -4.609643833695614       9.273269474547386E1    -4.613720097847555       9.234598898651927E1    -3.900554486479706      -1.475421550919199E1
 2.530000000000000E8    -1.193435260735786E1     8.868464076857391E1    -4.603871594976551       9.267922000015871E1    -4.608087783061872       9.229284359946168E1    -3.904456621244003      -1.485943758656473E1
 2.531250000000000E8    -1.193675883535008E1     8.858220799417052E1    -4.598114806782961       9.262331216825967E1    -4.602069616893727       9.223967907321318E1    -3.908330835213003      -1.496734506679628E1
 2.532500000000000E8    -1.193939514980107E1     8.847648512929116E1    -4.591856652299145       9.257005372102017E1    -4.596129291422944       9.218467397961905E1    -3.912045742838837      -1.506842200180585E1
 2.533750000000000E8    -1.194153210199734E1     8.836932175622941E1    -4.586084121937155       9.251626367327677E1    -4.590105254266551       9.213017291831105E1    -3.916066914941005      -1.517277002684353E1
 2.535000000000000E8    -1.194376448338295E1     8.826185304800202E1    -4.580103845235927       9.246331134048576E1    -4.583938844893801       9.207709644115391E1    -3.920211925407786      -1.527448244871993E1
 2.536250000000000E8    -1.194600111648855E1     8.815896254576579E1    -4.574371595161671       9.240919438627429E1    -4.578208557498709       9.202449683821244E1    -3.924497131900579      -1.537811183764335E1
 2.537500000000000E8    -1.194820299375437E1     8.804824670354789E1    -4.568187950663064       9.235384643671523E1    -4.572100903148924       9.196980284812645E1    -3.928368960521699      -1.548096843138232E1
 2.538750000000000E8    -1.195106187636516E1     8.794239871648841E1    -4.562335970561723       9.229872624182893E1    -4.566458218176426       9.191316151983204E1    -3.932461900740744      -1.558086242633956E1
 2.540000000000000E8    -1.195330017451316E1     8.782919546285579E1    -4.556275684419689       9.224346417143578E1    -4.560507746346149       9.186220818017865E1    -3.936604486477792      -1.568264895429719E1
 2.541250000000000E8    -1.195535820425445E1     8.772626651858860E1    -4.550457600550279       9.219123374035216E1    -4.554555863184864       9.180769909580680E1    -3.940286229076800      -1.578634123524972E1
 2.542500000000000E8    -1.195768800748928E1     8.761902344555463E1    -4.544781715502697       9.213596095462202E1    -4.548555192844635       9.175292668666282E1    -3.944191557611621      -1.588872820220169E1
 2.543750000000000E8    -1.195993026073386E1     8.751426838051793E1    -4.538587727194222       9.208168124449850E1    -4.542709990064022       9.170030867356053E1    -3.948319412512188      -1.599272125958196E1
 2.545000000000000E8    -1.196302957245484E1     8.741337608430496E1    -4.532759005798257       9.202767843804104E1    -4.536740920751173       9.164507413167036E1    -3.951943480119194      -1.609577083753009E1
 2.546250000000000E8    -1.196511515410530E1     8.730076977292482E1    -4.526797591968145       9.197298738992720E1    -4.531088524626401       9.159262476133081E1    -3.955833841920548      -1.619884858297583E1
 2.547500000000000E8    -1.196709900911401E1     8.719234515412954E1    -4.521118172603307       9.191967140311229E1    -4.525364101275275       9.153800178323125E1    -3.960408961091662      -1.630070439740940E1
 2.548750000000000E8    -1.196976130982266E1     8.708788637719607E1    -4.515388844360706       9.186549497577089E1    -4.519367008165847       9.148462196770785E1    -3.964596986148269      -1.640221408326193E1
 2.550000000000000E8    -1.197158742535149E1     8.697799312563764E1    -4.509572702524717       9.181177321987008E1    -4.513493333354220       9.143024269316882E1    -3.968722289280383      -1.650207456296134E1
 2.551250000000000E8    -1.197414848735840E1     8.687482834456000E1    -4.503527520252024       9.175597411097048E1    -4.507730962667534       9.137581596624555E1    -3.972673023833261      -1.660491596044427E1
 2.552500000000000E8    -1.197558708170240E1     8.677175505782247E1    -4.497793442804832       9.170242521137841E1    -4.501959185048624       9.132306431627532E1    -3.976547474022607      -1.670627673947076E1
 2.553750000000000E8    -1.197926079642371E1     8.666326006563536E1    -4.491827341777012       9.164845852664438E1    -4.495994562536463       9.127159453811959E1    -3.980701752663241      -1.680815753704238E1
 2.555000000000000E8    -1.198110722866737E1     8.655422381982505E1    -4.486234609921342       9.159422918695873E1    -4.490258000180157       9.121552150072222E1    -3.984971120786187      -1.690689807299377E1
 2.556250000000000E8    -1.198312205904144E1     8.644751095007993E1    -4.480355647325911       9.154024420742456E1    -4.484398270669297       9.116043201050009E1    -3.988715007221664      -1.701151241154646E1
 2.557500000000000E8    -1.198570219989586E1     8.634162995858752E1    -4.474611320885280       9.148624135925384E1    -4.478338847346305       9.110899557323269E1    -3.992618763130738      -1.711298256002580E1
 2.558750000000000E8    -1.198856155627741E1     8.622773320981649E1    -4.468731508580354       9.143264747712988E1    -4.472706165348374       9.105512650954901E1    -3.996697005084446      -1.721440052083076E1
 2.560000000000000E8    -1.199066599796831E1     8.612750009773013E1    -4.462868687835312       9.137926400843814E1    -4.466918107741806       9.100103932474931E1    -4.001080059632367      -1.731249396469255E1
 2.561250000000000E8    -1.199236732336617E1     8.602076908274574E1    -4.457396386081813       9.132600015898869E1    -4.461165197138592       9.094831933831880E1    -4.004652617363397      -1.741462831634306E1
 2.562500000000000E8    -1.199428977949955E1     8.591645570648934E1    -4.451149464640901       9.127048378937252E1    -4.455413734298497       9.089291164516126E1    -4.008687728453066      -1.751191063981657E1
 2.563750000000000E8    -1.199674388872724E1     8.581353499886107E1    -4.445697652007586       9.121551082743473E1    -4.449867035418261       9.083958687918370E1    -4.013096282950727      -1.761369090955742E1
 2.565000000000000E8    -1.199974829426307E1     8.570607185991182E1    -4.439784066532896       9.116340091481541E1    -4.443854380589130       9.078730424995857E1    -4.017134833745663      -1.771442175055024E1
 2.566250000000000E8    -1.200177268187055E1     8.559790132972829E1    -4.433991728563594       9.110860105456869E1    -4.438294555549533       9.073388178837173E1    -4.021532669738881      -1.781526855183725E1
 2.567500000000000E8    -1.200385935474394E1     8.548634644276473E1    -4.428253276982572       9.105359488699042E1    -4.432395784752670       9.068077304856367E1    -4.025157832684108      -1.791476088526578E1
 2.568750000000000E8    -1.200572794046155E1     8.538976781100344E1    -4.422629425568139       9.099704917670189E1    -4.426696119000245       9.062653292379505E1    -4.029283414312092      -1.801567782002641E1
 2.570000000000000E8    -1.200846771038262E1     8.527859192965843E1    -4.416970970293336       9.094493389858935E1    -4.420912688905512       9.057276582748135E1    -4.033600770462144      -1.811556036662244E1
 2.571250000000000E8    -1.201146825394905E1     8.517026467292456E1    -4.411223755538004       9.089303365859860E1    -4.415259799204101       9.052137058155587E1    -4.037203144213065      -1.821381260121677E1
 2.572500000000000E8    -1.201401940791493E1     8.506840513319794E1    -4.405723601465715       9.083839615742163E1    -4.409478036524085       9.046812160627580E1    -4.041488993245533      -1.831363842728438E1
 2.573750000000000E8    -1.201541294300466E1     8.496663168746976E1    -4.399630341075878       9.078384944641714E1    -4.403772430171752       9.041443587845649E1    -4.045365132282476      -1.841267307096516E1
 2.575000000000000E8    -1.201729036954943E1     8.485476757461679E1    -4.394499549042643       9.073124122350640E1    -4.398130710920117       9.036091128866663E1    -4.049284204335920      -1.851165140896877E1
 2.576250000000000E8    -1.201910752160013E1     8.475753369056154E1    -4.388546898068933       9.067655564930085E1    -4.392367192361394       9.030632095071252E1    -4.053762293239482      -1.860902037664905E1
 2.577500000000000E8    -1.202070260879479E1     8.465020901332981E1    -4.383165560753157       9.062331340553146E1    -4.386664829813151       9.025379925488228E1    -4.057839928457244      -1.871018233103518E1
 2.578750000000000E8    -1.202329333259891E1     8.454158580676567E1    -4.377289826910392       9.056855830644770E1    -4.380902916283657       9.019917497280419E1    -4.061899373879679      -1.880780096714818E1
 2.580000000000000E8    -1.202553030394580E1     8.443464800425627E1    -4.371293324078193       9.051431753236267E1    -4.375299219446341       9.014521825287387E1    -4.066373734330625      -1.890840068133060E1
 2.581250000000000E8    -1.202843991122180E1     8.432199453836373E1    -4.365816643921880       9.046243917583094E1    -4.369748224331346       9.009370426846250E1    -4.070563023939704      -1.900611803486577E1
 2.582500000000000E8    -1.203047681979939E1     8.422270519842949E1    -4.360090997957824       9.040836912087552E1    -4.364115640393075       9.003792979244598E1    -4.074542165049474      -1.910754611345388E1
 2.583750000000000E8    -1.203219094974613E1     8.410751112824397E1    -4.354425382911999       9.035393001633196E1    -4.358483560713297       8.998666934755474E1    -4.078626995078493      -1.920558227096695E1
 2.585000000000000E8    -1.203463369750116E1     8.400144582106701E1    -4.348838961448405       9.029964969836092E1    -4.352944715453421       8.993240331643989E1    -4.082745714491695      -1.930429262174756E1
 2.586250000000000E8    -1.203670267226681E1     8.390301034971907E1    -4.343530709971893       9.024516895470214E1    -4.347141559104915       8.987896556313041E1    -4.086521929234433      -1.940160836047387E1
 2.587500000000000E8    -1.203944463538831E1     8.379763291011491E1    -4.337726497270137       9.019251584874318E1    -4.341457117939772       8.982634170679006E1    -4.090820898895837      -1.950371332679700E1
 2.588750000000000E8    -1.204168708936688E1     8.369570002852535E1    -4.332145588911954       9.013975166114378E1    -4.335979494810212       8.977128322024230E1    -4.094983479582515      -1.960036754276657E1
 2.590000000000000E8    -1.204293773416093E1     8.359073026555370E1    -4.326716441846675       9.008721318644142E1    -4.330564691356999       8.971957702665327E1    -4.099299411267102      -1.969640180754873E1
 2.591250000000000E8    -1.204575002988894E1     8.348045929610882E1    -4.321202444724604       9.003112118295334E1    -4.324789540112891       8.966589757718930E1    -4.103403802525355      -1.979791315525921E1
 2.592500000000000E8    -1.204757398376334E1     8.338239629904675E1    -4.315302128209802       8.997654633101919E1    -4.318936901569414       8.961270553979888E1    -4.107366066800719      -1.989510735016730E1
 2.593750000000000E8    -1.204969596452472E1     8.327265885005473E1    -4.309985450271498       8.992320671777546E1    -4.313674325773082       8.955873145282085E1    -4.112004458853338      -1.999173009533315E1
 2.595000000000000E8    -1.205283176867621E1     8.316504975386415E1    -4.304124247671786       8.986970479232103E1    -4.307954296398598       8.950736702314923E1    -4.115867541561037      -2.008808475687226E1
 2.596250000000000E8    -1.205484524675701E1     8.306064474045526E1    -4.298531524362521       8.981484600732483E1    -4.302470979361499       8.945224368092907E1    -4.120036420860393      -2.018818916562698E1
 2.597500000000000E8    -1.205763132196277E1     8.295224646097519E1    -4.293327211272842       8.976352381969741E1    -4.297118074715890       8.940012222138905E1    -4.124451648193613      -2.028408193471910E1
 2.598750000000000E8    -1.205829718370477E1     8.284764366231317E1    -4.287631571285260       8.970818907533618E1    -4.291496403998639       8.934618794789446E1    -4.128562158578472      -2.038078632237690E1
 2.600000000000000E8    -1.206083222256098E1     8.274706095423625E1    -4.282278309716829       8.965682009282192E1    -4.285879520668606       8.929080200215452E1    -4.132708461372433      -2.047842948279661E1
 2.601250000000000E8    -1.206340325424468E1     8.264063907621211E1    -4.276606959962570       8.960409659743689E1    -4.280166030086794       8.923990731479701E1    -4.137218815609577      -2.057489854876765E1
 2.602500000000000E8    -1.206593378500622E1     8.252971216197427E1    -4.271159333486413       8.954864520476407E1    -4.274726156598922       8.918640968893749E1    -4.140880537087846      -2.067304999854980E1
 2.603750000000000E8    -1.206767392211422E1     8.242481712960340E1    -4.265482383885631       8.949551788273945E1    -4.269396289634600       8.913391260813475E1    -4.145329914800751      -2.077035455885649E1
 2.605000000000000E8    -1.206977107272578E1     8.232777858240961E1    -4.259832856199917       8.944329418094830E1    -4.263904774526473       8.907890576636203E1    -4.149381896878812      -2.086702734359453E1
 2.606250000000000E8    -1.207155889943034E1     8.221572977358608E1    -4.254330603527865       8.938772319375572E1    -4.258454553554129       8.902731842639118E1    -4.153626618018786      -2.096347665136288E1
 2.607500000000000E8    -1.207424800153597E1     8.211533300811827E1    -4.248962724863351       8.933383985170930E1    -4.252917306191555       8.897348468334657E1    -4.157939250028449      -2.105887391165207E1
 2.608750000000000E8    -1.207561030049760E1     8.200804017007404E1    -4.243427688875350       8.927918770474690E1    -4.247152434911665       8.891982014592769E1    -4.161951435628626      -2.115554241796237E1
 2.610000000000000E8    -1.207848194571979E1     8.190150358880852E1    -4.238051399859791       8.923001240139639E1    -4.241857756197457       8.886704695899937E1    -4.166360546759079      -2.125194481893512E1
 2.611250000000000E8    -1.208017502146058E1     8.180057811307736E1    -4.232560662563174       8.917609663188068E1    -4.236619788431292       8.881552526041578E1    -4.170226701180963      -2.134894286257557E1
 2.612500000000000E8    -1.208296127192732E1     8.169186022216587E1    -4.227349527143776       8.912186490792486E1    -4.230897044408789       8.876124096335376E1    -4.174650934510439      -2.144482724654078E1
 2.613750000000000E8    -1.208470156808351E1     8.158859182239715E1    -4.221816319270775       8.906921481662152E1    -4.225692240135265       8.871197555266586E1    -4.179074413867980      -2.153987626833370E1
