#  HZ   S   DB   R     50.00 
! Rohde & Schwarz Vector Network Analyzer 
! Rohde-Schwarz,ZNL3-2Port,1323001203101687,1.37.1.9-20.11.2.22
! Created: UTC 11/14/2023, 3:54:37 PM
! freq[Hz]                db:S11                  ang:S11                 db:S21                  ang:S21                 db:S12                  ang:S12                 db:S22                  ang:S22
 2.500000000000000E8    -1.188081784611687E1     9.108417119105916E1    -2.438133817192756      -8.460682910587926E1    -2.439011400070169      -8.483877414871742E1    -7.236414632529506      -2.606193686386481E1
 2.501250000000000E8    -1.188201751097000E1     9.098304806551336E1    -2.441528576729683      -8.466551507021124E1    -2.441608034329975      -8.490022499555810E1    -7.224884615474382      -2.610162138897567E1
 2.502500000000000E8    -1.188430891177022E1     9.087530940221319E1    -2.445031459183716      -8.472372962478477E1    -2.445044413495309      -8.496139650439086E1    -7.212929859756699      -2.613761713801385E1
 2.503750000000000E8    -1.188665506756771E1     9.076220141470343E1    -2.448044852500525      -8.478237497372510E1    -2.448056398947877      -8.501804039023141E1    -7.201120850806598      -2.617262060711044E1
 2.505000000000000E8    -1.188946809020320E1     9.065657401031879E1    -2.451248386363809      -8.483990344574373E1    -2.451540056690237      -8.507764482509987E1    -7.190040966169883      -2.621401448490801E1
 2.506250000000000E8    -1.189209471850931E1     9.054618684324477E1    -2.454788147361296      -8.489917039840704E1    -2.455049778182346      -8.513583095605819E1    -7.178332809633603      -2.625276809874754E1
 2.507500000000000E8    -1.189451002930050E1     9.044100935191112E1    -2.458232781418487      -8.495830244113029E1    -2.458348476921342      -8.519566351226023E1    -7.165777104747500      -2.628944374898800E1
 2.508750000000000E8    -1.189724574894787E1     9.033301550841873E1    -2.461396281894212      -8.501533842856861E1    -2.461945764878791      -8.525223402294672E1    -7.154837369328407      -2.632537855678578E1
 2.510000000000000E8    -1.190013536120905E1     9.022741832520762E1    -2.464903526871630      -8.507385065262511E1    -2.465357522028540      -8.531347434050100E1    -7.143218195664231      -2.636122733421734E1
 2.511250000000000E8    -1.190266857350087E1     9.012511177784083E1    -2.468205526642401      -8.513283938846665E1    -2.468782698048279      -8.537140698033127E1    -7.132393783540985      -2.640101462776894E1
 2.512500000000000E8    -1.190564668695001E1     9.000877915477930E1    -2.471703221182101      -8.519123806022333E1    -2.472215088817056      -8.542920296783871E1    -7.119975986791464      -2.644174096281004E1
 2.513750000000000E8    -1.190854731402350E1     8.991553915898355E1    -2.475057672932087      -8.524812355544216E1    -2.475382560127896      -8.548807609509511E1    -7.107938245571162      -2.647674838500099E1
 2.515000000000000E8    -1.191091435218912E1     8.979820932736378E1    -2.478659470791815      -8.530798742858643E1    -2.478724709420041      -8.554777227969666E1    -7.097009326340836      -2.651832472195581E1
 2.516250000000000E8    -1.191415634485484E1     8.968402587238695E1    -2.481892525450702      -8.536516449392194E1    -2.482263706406378      -8.560565797081676E1    -7.086245662623867      -2.655252813989265E1
 2.517500000000000E8    -1.191589840438647E1     8.958081000947429E1    -2.485349382705296      -8.542478203473966E1    -2.485618822314940      -8.566353183736452E1    -7.074713673332224      -2.658974528140289E1
 2.518750000000000E8    -1.191926947428686E1     8.947587104747851E1    -2.488777020375880      -8.548245503123590E1    -2.489021576191338      -8.572148924189757E1    -7.063297354580264      -2.662784673933345E1
 2.520000000000000E8    -1.192132171695226E1     8.937456844462753E1    -2.492113448384674      -8.554087818116599E1    -2.492415500495206      -8.578267180282492E1    -7.051508257085136      -2.666660436525656E1
 2.521250000000000E8    -1.192380787069690E1     8.926829204495515E1    -2.495558381469517      -8.559965681558897E1    -2.495874786994170      -8.584020948720625E1    -7.040397796156894      -2.670568148494142E1
 2.522500000000000E8    -1.192705194460942E1     8.915925958382047E1    -2.499250084089103      -8.565618497391729E1    -2.499226079246282      -8.590055697740711E1    -7.029361061237474      -2.674047354858747E1
 2.523750000000000E8    -1.193038572855357E1     8.904629874120818E1    -2.502334567054155      -8.571557888128756E1    -2.502758179676816      -8.595735327548236E1    -7.017858504157775      -2.677989808535495E1
 2.525000000000000E8    -1.193187423872724E1     8.894666618265575E1    -2.505880140300410      -8.577385527416516E1    -2.506031538542719      -8.601556669797385E1    -7.006808235419836      -2.682048679947790E1
 2.526250000000000E8    -1.193477230041232E1     8.883575513762820E1    -2.509339428104518      -8.583296541113046E1    -2.509873934407709      -8.607453534549026E1    -6.995237562668405      -2.685940030074201E1
 2.527500000000000E8    -1.193691198381055E1     8.873873614379048E1    -2.512548630207061      -8.589070463179294E1    -2.513069489079136      -8.613121572412777E1    -6.984032436471336      -2.689845926712546E1
 2.528750000000000E8    -1.194155977727500E1     8.861642396349620E1    -2.515971093876058      -8.594899842651856E1    -2.516680359000798      -8.619062668011942E1    -6.973812900578825      -2.693527516521193E1
 2.530000000000000E8    -1.194384829194580E1     8.851359964167870E1    -2.519380913738031      -8.600621145473211E1    -2.520158172226710      -8.624916991085720E1    -6.961776422055935      -2.697797212223854E1
 2.531250000000000E8    -1.194594617169638E1     8.840687447638118E1    -2.523010495704593      -8.606536175098387E1    -2.523597475751758      -8.630658718744714E1    -6.950940278205930      -2.701700294085562E1
 2.532500000000000E8    -1.194860417307787E1     8.830039776968070E1    -2.526314123965589      -8.612320471866555E1    -2.526972240567077      -8.636546738136188E1    -6.939271423672184      -2.705642678732690E1
 2.533750000000000E8    -1.195186627602930E1     8.819189978257003E1    -2.529934309495527      -8.618378526538459E1    -2.530498963712434      -8.642336852297460E1    -6.928579775838167      -2.709184201250734E1
 2.535000000000000E8    -1.195391223761371E1     8.809368081249768E1    -2.533439775122426      -8.623770296019654E1    -2.533800733053952      -8.648155827137988E1    -6.917476699543382      -2.713253324894688E1
 2.536250000000000E8    -1.195614534924351E1     8.798642200595708E1    -2.537012136998470      -8.629681725017895E1    -2.537243501472224      -8.653868972323916E1    -6.906522471272297      -2.717090689597811E1
 2.537500000000000E8    -1.195904681357461E1     8.787953360351034E1    -2.540340867219929      -8.635613316862700E1    -2.540849160040793      -8.659764882126824E1    -6.895758504455134      -2.721385305023102E1
 2.538750000000000E8    -1.196122062578925E1     8.777767332246060E1    -2.543836120396374      -8.641482868382957E1    -2.544505790908382      -8.665755724067260E1    -6.884578452703010      -2.724786466139629E1
 2.540000000000000E8    -1.196405827520765E1     8.766858151173662E1    -2.547410574400639      -8.647317154334249E1    -2.548069282963309      -8.671433853187970E1    -6.874251692095271      -2.728755204507999E1
 2.541250000000000E8    -1.196713516218495E1     8.756241788963412E1    -2.550989885872947      -8.652953840296804E1    -2.551384913809989      -8.677398819573156E1    -6.862742197109134      -2.732904179013244E1
 2.542500000000000E8    -1.196928339622650E1     8.745621033483145E1    -2.554368879199298      -8.658864794781103E1    -2.554956933942917      -8.683293119066960E1    -6.851809039548948      -2.737016403564964E1
 2.543750000000000E8    -1.197227410014733E1     8.735038109266956E1    -2.557577579117174      -8.664727597795502E1    -2.558386902572227      -8.688947588277989E1    -6.840974667241325      -2.741134671517995E1
 2.545000000000000E8    -1.197497887475009E1     8.724756755164778E1    -2.561078361342883      -8.670439550100120E1    -2.561746488473104      -8.694919395058295E1    -6.830084172173574      -2.745127037127009E1
 2.546250000000000E8    -1.197782555169752E1     8.714116787966455E1    -2.564692318976355      -8.676383938300994E1    -2.565435879855202      -8.700635210985840E1    -6.818616308908469      -2.749010257765602E1
 2.547500000000000E8    -1.198028472079415E1     8.703282358849357E1    -2.568322412076127      -8.682073469015080E1    -2.569045417364157      -8.706554385935770E1    -6.808277653806359      -2.753042278397753E1
 2.548750000000000E8    -1.198307385568811E1     8.692448680762303E1    -2.571971561048446      -8.687791871480901E1    -2.572460544474493      -8.712186355519309E1    -6.797092882386483      -2.757053889535649E1
 2.550000000000000E8    -1.198541965928632E1     8.681800410626226E1    -2.575400336057043      -8.693641430335929E1    -2.575908866978784      -8.718100088931561E1    -6.786554849403659      -2.761101559504622E1
 2.551250000000000E8    -1.198907036230297E1     8.671602198926500E1    -2.578864866802498      -8.699457081418585E1    -2.579602977478371      -8.723948131620794E1    -6.775444831531799      -2.765221476863340E1
 2.552500000000000E8    -1.199062577021278E1     8.661205781610531E1    -2.582621786098482      -8.705337898088257E1    -2.583332857453309      -8.729674288847052E1    -6.764701671181537      -2.768913573720827E1
 2.553750000000000E8    -1.199455298255207E1     8.650505684197643E1    -2.586108325343793      -8.711100711187369E1    -2.586530171411993      -8.735180739297935E1    -6.753937264960371      -2.773187731139396E1
 2.555000000000000E8    -1.199692713866034E1     8.639842484636503E1    -2.589845466814906      -8.716869270345119E1    -2.590074128619638      -8.741162574263149E1    -6.743323112739562      -2.777112728054487E1
 2.556250000000000E8    -1.199870958620771E1     8.629479375163783E1    -2.593187999851595      -8.722616976713931E1    -2.593585233615700      -8.747157350880271E1    -6.732602371392212      -2.781367628587343E1
 2.557500000000000E8    -1.200176026951769E1     8.618893792302396E1    -2.596697765851546      -8.728228789419745E1    -2.596883266208376      -8.752830808043582E1    -6.721857791329024      -2.785739147903259E1
 2.558750000000000E8    -1.200459199067354E1     8.607572255751838E1    -2.600522552349779      -8.734143865816495E1    -2.600570793094037      -8.758722514187228E1    -6.711081892392282      -2.789878320880680E1
 2.560000000000000E8    -1.200784997057981E1     8.597343704057704E1    -2.603699029970686      -8.740003798595582E1    -2.604246249240547      -8.764564772260316E1    -6.700661719962008      -2.793733457908976E1
 2.561250000000000E8    -1.200982024303941E1     8.586975770885127E1    -2.607351892278867      -8.745491576198248E1    -2.607785787617896      -8.770292847773011E1    -6.689698189899208      -2.797717222491227E1
 2.562500000000000E8    -1.201288076727296E1     8.576780595964667E1    -2.610799934475190      -8.751580267991761E1    -2.611363700074811      -8.776387649813850E1    -6.678956698840003      -2.801666962371115E1
 2.563750000000000E8    -1.201516713006912E1     8.566573987022004E1    -2.614422941231313      -8.757278712013535E1    -2.615035260067823      -8.781886885790462E1    -6.668491285925563      -2.805757739930605E1
 2.565000000000000E8    -1.201852679707241E1     8.555910725222024E1    -2.618044899321463      -8.763025741034056E1    -2.618554803785396      -8.787792404793552E1    -6.658222133969297      -2.810020696351440E1
 2.566250000000000E8    -1.202092264557053E1     8.545250154941816E1    -2.621488204133429      -8.768744930004713E1    -2.622132768140286      -8.793393560404677E1    -6.647180898508816      -2.813878690046537E1
 2.567500000000000E8    -1.202348530951602E1     8.534133450879607E1    -2.625290399657552      -8.774636177698213E1    -2.625741024149786      -8.799157886685846E1    -6.636678545056044      -2.818252875969785E1
 2.568750000000000E8    -1.202546525990794E1     8.524793254857353E1    -2.628686538557321      -8.780601800469860E1    -2.629191665780844      -8.804843411355890E1    -6.626154448815168      -2.822426257835121E1
 2.570000000000000E8    -1.202875081610936E1     8.513571332699919E1    -2.632378474152847      -8.786191098628916E1    -2.632743233404433      -8.810775177738918E1    -6.615773661287641      -2.826428093656517E1
 2.571250000000000E8    -1.203198840168549E1     8.502523160983979E1    -2.635644886521080      -8.791808928186926E1    -2.636674408028390      -8.816626606178882E1    -6.604890341126569      -2.830755874464198E1
 2.572500000000000E8    -1.203484084968943E1     8.492160282328494E1    -2.639545345034950      -8.797624106217563E1    -2.640016592901961      -8.822398313643828E1    -6.594575215361573      -2.835099942792354E1
 2.573750000000000E8    -1.203701883962016E1     8.482160508737297E1    -2.642962572603047      -8.803598108755988E1    -2.643675648369448      -8.828024172695463E1    -6.583717365795674      -2.839326941647863E1
 2.575000000000000E8    -1.203976991605306E1     8.470777668227137E1    -2.646976707832435      -8.809292920667745E1    -2.647449752830135      -8.833762062977766E1    -6.573445269281261      -2.843302645373315E1
 2.576250000000000E8    -1.204229081686734E1     8.461548101452730E1    -2.650385151064887      -8.815011955134921E1    -2.651114042005961      -8.839634824913907E1    -6.563582859682775      -2.847193545713886E1
 2.577500000000000E8    -1.204450721020312E1     8.450737593021246E1    -2.654422382001921      -8.820659856433981E1    -2.654608263387650      -8.845440039621080E1    -6.553133510928230      -2.851922553539714E1
 2.578750000000000E8    -1.204695775718058E1     8.440129033467436E1    -2.657743202146072      -8.826530541545814E1    -2.658319889220158      -8.851237426482173E1    -6.543607435020777      -2.855777746148762E1
 2.580000000000000E8    -1.205008714303199E1     8.429827517803150E1    -2.661176226482476      -8.832432786709626E1    -2.661882151783501      -8.857166190474379E1    -6.532664307912995      -2.860287159754346E1
 2.581250000000000E8    -1.205331240508991E1     8.419185034640287E1    -2.664918773697945      -8.837948983856631E1    -2.665368755095422      -8.862785424151906E1    -6.522091112666200      -2.864450510303928E1
 2.582500000000000E8    -1.205571729809234E1     8.409275696344825E1    -2.668460321756825      -8.843533078124146E1    -2.669137059907182      -8.868688615564528E1    -6.511742030894180      -2.868391782127242E1
 2.583750000000000E8    -1.205794179699491E1     8.398253393332681E1    -2.672259802788395      -8.849445791961662E1    -2.672632775118328      -8.874198960962234E1    -6.501732457219832      -2.872971519412490E1
 2.585000000000000E8    -1.206042303047528E1     8.387657960943865E1    -2.675873507955468      -8.855081742747440E1    -2.676358716595262      -8.880088142809004E1    -6.490589663230743      -2.877193418497557E1
 2.586250000000000E8    -1.206361554178233E1     8.377930891988723E1    -2.679770880568921      -8.860966789403616E1    -2.680153487370247      -8.885777954103368E1    -6.480720973100121      -2.881388350653339E1
 2.587500000000000E8    -1.206730957631550E1     8.367273202724913E1    -2.683318474622729      -8.866677107459888E1    -2.683692583741876      -8.891367198453659E1    -6.470707447829475      -2.885744447096119E1
 2.588750000000000E8    -1.207036347020570E1     8.357231927289996E1    -2.686905362729897      -8.872301594791053E1    -2.687533122632288      -8.897277058354733E1    -6.460558314366219      -2.889929265964778E1
 2.590000000000000E8    -1.207220671644648E1     8.346468937957988E1    -2.690792421204606      -8.877997688607849E1    -2.691174309929450      -8.902947815458866E1    -6.449743583778158      -2.894340387002126E1
 2.591250000000000E8    -1.207541001217385E1     8.336251932889562E1    -2.694524941075731      -8.883765543769763E1    -2.694911461399143      -8.908577866312511E1    -6.440226014151675      -2.898893730172888E1
 2.592500000000000E8    -1.207777937267637E1     8.326661479263204E1    -2.697885235409966      -8.889508453616372E1    -2.698574001134761      -8.914257450830215E1    -6.430172321288231      -2.902746988498198E1
 2.593750000000000E8    -1.208040285677832E1     8.315888427315464E1    -2.701688540048620      -8.895186532157339E1    -2.702260023339782      -8.920070962613346E1    -6.420377389033125      -2.907054698207276E1
 2.595000000000000E8    -1.208370471499729E1     8.305031735665615E1    -2.705165532316021      -8.900923503493524E1    -2.705767360114615      -8.925723579390534E1    -6.409782044359410      -2.911271739295082E1
 2.596250000000000E8    -1.208640742060558E1     8.294853857378760E1    -2.708868280287381      -8.906809588412585E1    -2.709591367132505      -8.931648736338722E1    -6.399988688070454      -2.915915145058435E1
 2.597500000000000E8    -1.209012016304276E1     8.284264837986588E1    -2.712753152981284      -8.912284182652489E1    -2.713246023158833      -8.937285088116768E1    -6.389551851132897      -2.920306094082211E1
 2.598750000000000E8    -1.209117020492656E1     8.274225979001005E1    -2.716450130602917      -8.918063656024256E1    -2.716879153413136      -8.942967702626125E1    -6.379330989862837      -2.924273471821623E1
 2.600000000000000E8    -1.209448638368537E1     8.263871856489560E1    -2.720100511248599      -8.923608140709973E1    -2.720820783105231      -8.948854154617693E1    -6.369969122487699      -2.928806717228523E1
 2.601250000000000E8    -1.209734538542156E1     8.253704740519194E1    -2.723930817172601      -8.929334730578189E1    -2.724436425804665      -8.954393229715409E1    -6.360115634036720      -2.933196900157333E1
 2.602500000000000E8    -1.210021787376883E1     8.242992275783422E1    -2.727380366696655      -8.935170731218115E1    -2.728413779400886      -8.960165560021301E1    -6.349787640114167      -2.937511073530593E1
 2.603750000000000E8    -1.210327077732997E1     8.232795506232941E1    -2.731015589744842      -8.940789973426473E1    -2.732134716577426      -8.965858160959927E1    -6.340152138228879      -2.941917773159916E1
 2.605000000000000E8    -1.210647745182925E1     8.223775114288199E1    -2.734895534537364      -8.946312887482925E1    -2.735776663049232      -8.971630132239471E1    -6.329698979119478      -2.946124118917667E1
 2.606250000000000E8    -1.210896180333730E1     8.212782041849536E1    -2.738497231306416      -8.952174186469121E1    -2.739463991657521      -8.977042536925647E1    -6.319919386306722      -2.950351373684670E1
 2.607500000000000E8    -1.211184734271421E1     8.202749836433421E1    -2.742295728622197      -8.957810504929671E1    -2.743240047940357      -8.982806439034101E1    -6.310113999259043      -2.954668602891505E1
 2.608750000000000E8    -1.211357371753627E1     8.192780058046354E1    -2.746105773655683      -8.963662026935033E1    -2.746737149178784      -8.988503832140040E1    -6.300170479421662      -2.959129790801700E1
 2.610000000000000E8    -1.211735324549908E1     8.182443825723885E1    -2.749728737074810      -8.969093062072795E1    -2.750667625193375      -8.994160565304610E1    -6.290069223838800      -2.963511031720134E1
 2.611250000000000E8    -1.211969532980442E1     8.172584037356842E1    -2.753742812477065      -8.974824900552915E1    -2.754655759566271      -8.999671990244630E1    -6.280288663082746      -2.967887451660955E1
 2.612500000000000E8    -1.212309770510342E1     8.161982814829830E1    -2.757317659130706      -8.980590154631292E1    -2.758026062755533      -9.005421481376318E1    -6.270280626979470      -2.972457544507897E1
 2.613750000000000E8    -1.212485314584872E1     8.151612059840181E1    -2.761075881663546      -8.986137888360378E1    -2.761871101725133      -9.010801647537392E1    -6.260658515415467      -2.976968533933874E1
