#  HZ   S   DB   R     50.00 
! Rohde & Schwarz Vector Network Analyzer 
! Rohde-Schwarz,ZNL3-2Port,1323001203101687,1.37.1.9-20.11.2.22
! Created: UTC 11/14/2023, 3:57:25 PM
! freq[Hz]                db:S11                  ang:S11                 db:S21                  ang:S21                 db:S12                  ang:S12                 db:S22                  ang:S22
 2.500000000000000E8    -7.287668933604130      -2.698078645764934E1    -6.656703436393689       1.239876288623479E1    -6.666145239940020       1.187527711531284E1    -3.834847673549275      -1.240060950832278E1
 2.501250000000000E8    -7.277029669721143      -2.701480711888556E1    -6.657745534322725       1.229817651281131E1    -6.666122444992643       1.176254282177261E1    -3.838422962364636      -1.251057739551530E1
 2.502500000000000E8    -7.265394016017578      -2.705078396471515E1    -6.658601884600501       1.219489527822592E1    -6.667285676607176       1.165651768440104E1    -3.842247897307677      -1.261424435744452E1
 2.503750000000000E8    -7.254064046251612      -2.708869295043977E1    -6.659652628838092       1.209412989864616E1    -6.668303529984257       1.154971109703271E1    -3.845961627761967      -1.272118678932358E1
 2.505000000000000E8    -7.242566587150755      -2.712660101009592E1    -6.660737212744595       1.199178468211944E1    -6.669159757947170       1.144637410439927E1    -3.849776071010051      -1.282605491868672E1
 2.506250000000000E8    -7.230447692664748      -2.716259839440748E1    -6.661921008437708       1.188926604965046E1    -6.670597592153537       1.134418426291744E1    -3.853909821122861      -1.293157536341381E1
 2.507500000000000E8    -7.219364288416346      -2.719793207505413E1    -6.663268711779437       1.178694114700633E1    -6.672033375480960       1.124084623498795E1    -3.857899019149514      -1.303834146449956E1
 2.508750000000000E8    -7.208354620191850      -2.723270633641160E1    -6.664384764432959       1.168630541112433E1    -6.672992191266303       1.113857286319010E1    -3.861570956687563      -1.314259718420459E1
 2.510000000000000E8    -7.196887289882330      -2.727001614300477E1    -6.665740268864626       1.158420096559613E1    -6.674340926772288       1.103480144490889E1    -3.865625548729778      -1.324697158372713E1
 2.511250000000000E8    -7.185642696367055      -2.730597764501717E1    -6.666659078285175       1.148183341154419E1    -6.675382568294166       1.093365949143772E1    -3.869631802976513      -1.335310027229914E1
 2.512500000000000E8    -7.173583797423573      -2.734438415590543E1    -6.667966506275275       1.138151052671406E1    -6.676718780340129       1.083272199947763E1    -3.873347580618322      -1.345887489278203E1
 2.513750000000000E8    -7.162824767284382      -2.737802748599499E1    -6.669114465239546       1.128088580474936E1    -6.678301569547492       1.072928321189836E1    -3.877404454001620      -1.356454472953837E1
 2.515000000000000E8    -7.151117127493655      -2.741609889798870E1    -6.670612854549840       1.117667664838386E1    -6.679184397895322       1.062675614709759E1    -3.881031717086219      -1.366832144114113E1
 2.516250000000000E8    -7.139816745548652      -2.745441347268487E1    -6.671989197744452       1.107681330533692E1    -6.680520591360997       1.052535852526912E1    -3.885649037830007      -1.377054761071336E1
 2.517500000000000E8    -7.128762740951920      -2.749005420685418E1    -6.673311950473609       1.097437422792311E1    -6.681686380866094       1.042192560694375E1    -3.889327456053056      -1.387848118342407E1
 2.518750000000000E8    -7.117799772577165      -2.752656231002507E1    -6.674585808116298       1.087378677212405E1    -6.683013885131851       1.032110440161472E1    -3.893037242367348      -1.398044234172609E1
 2.520000000000000E8    -7.105841117439685      -2.756554192334174E1    -6.675532590099703       1.077119194936246E1    -6.684569080650782       1.021881490912911E1    -3.897312406537802      -1.408584796460584E1
 2.521250000000000E8    -7.094812875241471      -2.760072134627495E1    -6.676976081806424       1.066808405339894E1    -6.685859744713401       1.011832486139854E1    -3.901440889018030      -1.418827884505147E1
 2.522500000000000E8    -7.083608594399990      -2.763786927105073E1    -6.678408406842028       1.056960275684563E1    -6.687206313439069       1.001397379495908E1    -3.905312921510981      -1.429195693862409E1
 2.523750000000000E8    -7.072329360403621      -2.767465059772707E1    -6.679624068688935       1.046948216590599E1    -6.688598651775389       9.911777901468611      -3.909528210420831      -1.439758938582034E1
 2.525000000000000E8    -7.061701020762728      -2.771275223476187E1    -6.680982079235402       1.036748301396969E1    -6.689755864338788       9.811620219621606      -3.913799235720107      -1.449919867958565E1
 2.526250000000000E8    -7.050143677213820      -2.774980569043432E1    -6.682163846710887       1.026522984833396E1    -6.691463242639530       9.710588712184318      -3.917868677223335      -1.460391873040351E1
 2.527500000000000E8    -7.039178578900030      -2.778695750612584E1    -6.683304098638997       1.016451301122749E1    -6.692669851976943       9.610723194441732      -3.922010083525792      -1.470563201786973E1
 2.528750000000000E8    -7.027803619699418      -2.782628010021359E1    -6.684785786674853       1.006575434844684E1    -6.693734025786946       9.508080852680910      -3.925774291565259      -1.480767152946287E1
 2.530000000000000E8    -7.016922270067834      -2.786030732983976E1    -6.686266241585762       9.966438777298048      -6.695228574681158       9.408669305814962      -3.929872383921827      -1.491197609722294E1
 2.531250000000000E8    -7.005894126559969      -2.789926913707306E1    -6.687692248246226       9.863301884469431      -6.696552911100539       9.308322147999576      -3.933917416935527      -1.501630363957313E1
 2.532500000000000E8    -6.994902059231637      -2.793821396850317E1    -6.688916274011843       9.763000371072074      -6.697881330005448       9.206775817782491      -3.937755843244506      -1.511994419898692E1
 2.533750000000000E8    -6.983732383066887      -2.797541558811124E1    -6.690266284942145       9.662946232945455      -6.699361918092245       9.102628064735397      -3.941938017710151      -1.522339695382697E1
 2.535000000000000E8    -6.972553834077101      -2.801102307353215E1    -6.691591790991782       9.564168640040027      -6.700434671694327       9.003718249296172      -3.945805305503536      -1.532432789936005E1
 2.536250000000000E8    -6.962039676793440      -2.804834710761000E1    -6.692991966388923       9.462401295930462      -6.701993646812885       8.903193069004494      -3.950012574583642      -1.542559772255704E1
 2.537500000000000E8    -6.951575084950866      -2.808895081615677E1    -6.694319812882510       9.361189121424299      -6.703397853860996       8.802867891197593      -3.954504690400782      -1.552802466627126E1
 2.538750000000000E8    -6.940034946057847      -2.812746359079402E1    -6.695602719964617       9.258463756904494      -6.704961010118970       8.700505181320279      -3.958029314315263      -1.563028179208663E1
 2.540000000000000E8    -6.928884883022770      -2.816443029167052E1    -6.697034028334260       9.159256373700801      -6.706151060062011       8.598937708637711      -3.962359992213150      -1.573311567146166E1
 2.541250000000000E8    -6.918485036578622      -2.820246887928336E1    -6.698743097574695       9.060674894413639      -6.707594570836052       8.500758856150721      -3.966038838192612      -1.583515870885151E1
 2.542500000000000E8    -6.907345420477466      -2.824066766351044E1    -6.700174827597325       8.960147521205524      -6.708941358292709       8.398306377651037      -3.970052127928840      -1.593866370447730E1
 2.543750000000000E8    -6.896273480026101      -2.827726184932084E1    -6.701060780028754       8.858950207670189      -6.710499411701134       8.299313852755576      -3.974649340558210      -1.603991736235796E1
 2.545000000000000E8    -6.885381979980733      -2.831690236948534E1    -6.702208298502624       8.759661487447206      -6.711831849686851       8.196759298536032      -3.978714519670368      -1.614317442109842E1
 2.546250000000000E8    -6.874649652788884      -2.835600598164655E1    -6.703848677253951       8.659486467414219      -6.713185017805827       8.097944744678490      -3.982365918614739      -1.624754638807040E1
 2.547500000000000E8    -6.863768278096276      -2.839121726549415E1    -6.705480208270570       8.560966369113418      -6.714722840741356       7.996255297307187      -3.986568029662234      -1.634882712961425E1
 2.548750000000000E8    -6.852751231972754      -2.843059271574726E1    -6.706650129436552       8.462672915993899      -6.716187721295899       7.896198864459683      -3.990853779377537      -1.644986820553631E1
 2.550000000000000E8    -6.841817771586057      -2.847014948489744E1    -6.708271512045813       8.361152057086652      -6.717533311740086       7.796487466245512      -3.994840157584833      -1.654977868119652E1
 2.551250000000000E8    -6.831080559276419      -2.851178615183140E1    -6.709596287224620       8.260944763719953      -6.719048766673154       7.695645423132683      -3.999033237519648      -1.665338376343488E1
 2.552500000000000E8    -6.820691455336179      -2.854822373958098E1    -6.711084351018797       8.159549261035609      -6.720446184339312       7.596854389513861      -4.002786021103874      -1.675257216116048E1
 2.553750000000000E8    -6.809727955378946      -2.858839992876367E1    -6.712353254608214       8.061664458301649      -6.721824737238336       7.499404046304829      -4.007016449252989      -1.685256012430900E1
 2.555000000000000E8    -6.798876500637876      -2.862549058699282E1    -6.713949649861161       7.962368216644540      -6.723249640547227       7.398043075934135      -4.011131553204174      -1.695175053694172E1
 2.556250000000000E8    -6.788668513886923      -2.866189087788127E1    -6.715402922819695       7.864728753249715      -6.724761544382268       7.295617801611797      -4.015196674094846      -1.705795093802335E1
 2.557500000000000E8    -6.778229409173736      -2.870390153365171E1    -6.716853833180732       7.765022479973994      -6.725911624864247       7.198059555622705      -4.019476061263841      -1.715634467382123E1
 2.558750000000000E8    -6.767213264896810      -2.873968286959533E1    -6.718477409732926       7.666825162089196      -6.727614029491885       7.097572917613820      -4.023696724415221      -1.725834711295786E1
 2.560000000000000E8    -6.756219701701336      -2.878144840671271E1    -6.719664521696149       7.566373279318658      -6.728987486422239       6.997674348342402      -4.027395158437875      -1.735584912751954E1
 2.561250000000000E8    -6.745885330321570      -2.882274911345316E1    -6.721314828923561       7.467486064595802      -6.730654250451381       6.898022108889750      -4.031614460260484      -1.745798851664188E1
 2.562500000000000E8    -6.735170998326243      -2.886221567605046E1    -6.722426407055481       7.366142913177705      -6.732605089090531       6.798303410040637      -4.035826744088798      -1.755613840739205E1
 2.563750000000000E8    -6.724515060469855      -2.890449730950965E1    -6.724005732044099       7.265834906586527      -6.733940123987610       6.698966662144329      -4.039844807039650      -1.765807216178266E1
 2.565000000000000E8    -6.714046700038300      -2.894057370480956E1    -6.725537760641290       7.169499170493633      -6.735141052721032       6.599504280597745      -4.044138914468519      -1.775848437031111E1
 2.566250000000000E8    -6.703102714704603      -2.898148298265835E1    -6.726853687520732       7.069811093675902      -6.736836016165364       6.500550463652718      -4.048133206287726      -1.785762629949263E1
 2.567500000000000E8    -6.692700635952516      -2.902222501842598E1    -6.728667581208654       6.969891452994462      -6.738424323462513       6.402178818822047      -4.052311186825722      -1.795751297834972E1
 2.568750000000000E8    -6.682868763923965      -2.905978465669912E1    -6.729998662629797       6.870407182863842      -6.739756740015625       6.303385119719921      -4.056284171652812      -1.805737527438556E1
 2.570000000000000E8    -6.672476181070417      -2.910189683678490E1    -6.731699737621442       6.772695547464537      -6.741384690921866       6.202280699933373      -4.060897567038720      -1.815745747197334E1
 2.571250000000000E8    -6.661190590474827      -2.914062238117267E1    -6.732974672883380       6.674726857145542      -6.743111510000158       6.105249108879439      -4.064877591153431      -1.825641067593137E1
 2.572500000000000E8    -6.651360314230538      -2.918070425286222E1    -6.734620526139978       6.576966129157937      -6.744501345441241       6.006634868365601      -4.069200799047855      -1.835570674052202E1
 2.573750000000000E8    -6.640831279383895      -2.922194440771614E1    -6.736010150129306       6.477013896717851      -6.746006407204264       5.908999126021061      -4.072925626039820      -1.845396133086792E1
 2.575000000000000E8    -6.629790988034561      -2.926262068783281E1    -6.737958290059733       6.377689827186042      -6.747689658320669       5.809622845893243      -4.076867791589194      -1.855402950370297E1
 2.576250000000000E8    -6.620098997045561      -2.930286506718138E1    -6.739221458929814       6.278720434868431      -6.749086307771968       5.709008509519348      -4.080977533918968      -1.865366313476584E1
 2.577500000000000E8    -6.609629217358486      -2.934400017449163E1    -6.741149251906402       6.180060813026722      -6.750539148630319       5.611632701427047      -4.085193220431035      -1.875225913779952E1
 2.578750000000000E8    -6.599029163461628      -2.938257029203217E1    -6.742432978640187       6.080668072309598      -6.752097447890357       5.511473917978894      -4.089446722050599      -1.885134302926182E1
 2.580000000000000E8    -6.588582955733945      -2.942600708678491E1    -6.743796260668605       5.981532720984856      -6.753486805527567       5.413417427221033      -4.093463528229689      -1.894875905453939E1
 2.581250000000000E8    -6.577967221329373      -2.946457098762469E1    -6.745300246985199       5.886729156900256      -6.755162059821652       5.315109768715742      -4.097763798146558      -1.904635846721142E1
 2.582500000000000E8    -6.568490595139687      -2.950577298210982E1    -6.746926990956461       5.788226247853346      -6.756898398038249       5.214933944072487      -4.101983745112074      -1.914724895100289E1
 2.583750000000000E8    -6.557600227775485      -2.954427799165323E1    -6.748718277297496       5.690618019450776      -6.758498040706751       5.117970385231227      -4.106224414967664      -1.924575791954458E1
 2.585000000000000E8    -6.547483727064058      -2.958441800533821E1    -6.750346268098101       5.592246607772744      -6.760096243423925       5.017778253313268      -4.110344322593559      -1.934548742913988E1
 2.586250000000000E8    -6.536878549931049      -2.962353134488683E1    -6.751733538732002       5.492146429139972      -6.761807285451632       4.920847296072004      -4.114600653939942      -1.944105431348533E1
 2.587500000000000E8    -6.527027273686123      -2.966597998446751E1    -6.753328730568051       5.395415689230225      -6.763239119746046       4.823600104840584      -4.118538929980139      -1.954100430025215E1
 2.588750000000000E8    -6.517112861859371      -2.970525832973543E1    -6.754881854448564       5.298616145149247      -6.765076137123522       4.723676099596482      -4.123092819097851      -1.963797160563811E1
 2.590000000000000E8    -6.506467126827404      -2.974675184601890E1    -6.756673021414729       5.200618277477072      -6.766762888281319       4.626681684004595      -4.127197644917839      -1.973626427988637E1
 2.591250000000000E8    -6.496005675364911      -2.978998340552720E1    -6.758208589545287       5.100953120004973      -6.768250438151311       4.528091152257689      -4.131529178181967      -1.983555484894285E1
 2.592500000000000E8    -6.486335090448200      -2.983024990076122E1    -6.759535089759707       5.003084755694633      -6.769663081984406       4.430755023960075      -4.135218301114093      -1.993031247024237E1
 2.593750000000000E8    -6.476282144121996      -2.987372084986345E1    -6.761488237964551       4.904638404273474      -6.771476440542702       4.332923193921719      -4.139966270384248      -2.002815856339160E1
 2.595000000000000E8    -6.465589979437388      -2.991427960379401E1    -6.762833296860054       4.808278258287538      -6.773061081364652       4.236058155446225      -4.143955258366134      -2.012455771182874E1
 2.596250000000000E8    -6.455647052425047      -2.995393548512303E1    -6.764445555347710       4.710302169570506      -6.774974851436028       4.138036693308617      -4.148696792344882      -2.022082870620591E1
 2.597500000000000E8    -6.445787791651099      -2.999537770593650E1    -6.766321272613082       4.614708901830624      -6.776560640776379       4.040312402737049      -4.152680224606990      -2.032027283337771E1
 2.598750000000000E8    -6.435419562395105      -3.003931614926612E1    -6.768042848859733       4.514055057666043      -6.778217866613833       3.940974275145925      -4.156693338322595      -2.041812402485833E1
 2.600000000000000E8    -6.425328213282382      -3.007976605693443E1    -6.769466214566294       4.418510329547124      -6.779657648849704       3.841265266215265      -4.160689454812339      -2.051405791093747E1
 2.601250000000000E8    -6.415176405129621      -3.012134549301951E1    -6.771273754099840       4.322296150975083      -6.781357242482647       3.746593441134728      -4.165107382188261      -2.060887186398316E1
 2.602500000000000E8    -6.405276606905917      -3.016188950423960E1    -6.772957460376009       4.225012610824598      -6.783037322332712       3.648707525981431      -4.169160755396446      -2.070667115412867E1
 2.603750000000000E8    -6.395138767971904      -3.020246038841354E1    -6.774372763148806       4.128161176383745      -6.784918712698406       3.550281544411006      -4.173814144961034      -2.080407250008707E1
 2.605000000000000E8    -6.385687075902951      -3.024495034477148E1    -6.776092052402550       4.031608918037207      -6.786542808594317       3.451516466533430      -4.177783985599175      -2.090181283410107E1
 2.606250000000000E8    -6.375563676267278      -3.028617588237593E1    -6.777754608186772       3.933658055617849      -6.788194842923464       3.355425919051178      -4.181947007401638      -2.099803616887042E1
 2.607500000000000E8    -6.365357983951704      -3.032891687185097E1    -6.779443387695476       3.835857864778405      -6.790110401628384       3.259000891060343      -4.186471689826880      -2.109423569086063E1
 2.608750000000000E8    -6.355925424223424      -3.036920513873669E1    -6.781242765933450       3.739160377267715      -6.791505788756388       3.160721622218815      -4.190363693212356      -2.119037885047112E1
 2.610000000000000E8    -6.346146008515829      -3.041326324981947E1    -6.782857855019637       3.643396564697410      -6.793312879574835       3.065016537066966      -4.194522387611981      -2.128669106649311E1
 2.611250000000000E8    -6.336283154706387      -3.045534292557378E1    -6.784663753955689       3.545017757239491      -6.795191490919561       2.969096026135656      -4.198917077078118      -2.138207990141122E1
 2.612500000000000E8    -6.325788061927298      -3.049420211812746E1    -6.786116747094837       3.449698792220484      -6.796748437889044       2.871718472672564      -4.203070428387324      -2.147999324273182E1
 2.613750000000000E8    -6.315994211642759      -3.053860183036705E1    -6.787982256283152       3.352540084367295      -6.798305423982150       2.777132408766370      -4.207034450073703      -2.157428991326573E1
