#  HZ   S   DB   R     50.00 
! Rohde & Schwarz Vector Network Analyzer 
! Rohde-Schwarz,ZNL3-2Port,1323001203101687,1.37.1.9-20.11.2.22
! Created: UTC 11/14/2023, 4:01:09 PM
! freq[Hz]                db:S11                  ang:S11                 db:S21                  ang:S21                 db:S12                  ang:S12                 db:S22                  ang:S22
 2.500000000000000E8    -2.308135829101751      -7.158821934432235E1    -9.193769724924820      -4.390360028295835E1    -9.208092941888431      -4.462208716871987E1    -5.631370255055797      -6.389770370703958E1
 2.501250000000000E8    -2.312913431483516      -7.162496888541823E1    -9.194157663978297      -4.397562208911651E1    -9.206733302907883      -4.470542299387068E1    -5.621925256827817      -6.396551878108485E1
 2.502500000000000E8    -2.315795939292897      -7.166245516820265E1    -9.193916548620129      -4.404836440443778E1    -9.206872253510287      -4.477913795459847E1    -5.613318609113003      -6.402833516304437E1
 2.503750000000000E8    -2.318824997726411      -7.169505182523888E1    -9.193727476895864      -4.411611657267795E1    -9.206598957471481      -4.485187053868833E1    -5.604990620495634      -6.408904418052194E1
 2.505000000000000E8    -2.321590119999571      -7.173018468460670E1    -9.193635740439680      -4.418570390556869E1    -9.206753022397603      -4.492398740374259E1    -5.597033640343538      -6.415187874599390E1
 2.506250000000000E8    -2.325025636617589      -7.176646522296758E1    -9.193839261421108      -4.425591164994174E1    -9.206599265881836      -4.499365010978197E1    -5.588242881109063      -6.421187094017213E1
 2.507500000000000E8    -2.327935888931033      -7.179969935526913E1    -9.193974865599467      -4.432700550447836E1    -9.206877959941163      -4.506369038689311E1    -5.579756772343993      -6.427289353067334E1
 2.508750000000000E8    -2.331139910625622      -7.183558168264760E1    -9.193961604116929      -4.439613361339899E1    -9.207139967237572      -4.513351606723224E1    -5.572462841400671      -6.433446667192779E1
 2.510000000000000E8    -2.334068139405280      -7.187075883634046E1    -9.194263194277472      -4.446534001250657E1    -9.207167439458722      -4.520653505400391E1    -5.563628678862878      -6.439714367787487E1
 2.511250000000000E8    -2.337618648015988      -7.190790817272358E1    -9.194455510543621      -4.453616679790832E1    -9.207272228007428      -4.527585187659394E1    -5.555824608978405      -6.445878072365716E1
 2.512500000000000E8    -2.340443621980877      -7.194155178154379E1    -9.194623981188276      -4.460361793646517E1    -9.207391596379665      -4.534337361533159E1    -5.547514283895509      -6.451979501216246E1
 2.513750000000000E8    -2.343693040002817      -7.197933143077070E1    -9.194646270969651      -4.467483039393257E1    -9.207990515372170      -4.541365036121694E1    -5.539325175329674      -6.458116187964575E1
 2.515000000000000E8    -2.346748658568248      -7.201281091667131E1    -9.195093331051673      -4.474496752950962E1    -9.207880835998402      -4.548576826896238E1    -5.531496803846940      -6.464236882862332E1
 2.516250000000000E8    -2.350068139747483      -7.204828128021074E1    -9.195411048340699      -4.481346174949514E1    -9.208233099463278      -4.555495688053000E1    -5.523981146670422      -6.470326088605684E1
 2.517500000000000E8    -2.352943777039210      -7.208345523831404E1    -9.195510320045074      -4.488368550852710E1    -9.208569860693327      -4.562459039281281E1    -5.516153746018655      -6.476559170218781E1
 2.518750000000000E8    -2.356120243627335      -7.212013449202780E1    -9.195783356589839      -4.495483758665360E1    -9.208679145629512      -4.569499908541457E1    -5.507833768769958      -6.482587655842342E1
 2.520000000000000E8    -2.359106401403222      -7.215474310539354E1    -9.195917948922101      -4.502498813475919E1    -9.208924304371394      -4.576285004781627E1    -5.499819085237766      -6.488541865932542E1
 2.521250000000000E8    -2.362183710403730      -7.219034113754815E1    -9.196041194721927      -4.509487637785583E1    -9.209121437676085      -4.583412226249602E1    -5.491651244711356      -6.495022010605211E1
 2.522500000000000E8    -2.365123442776919      -7.222491824673014E1    -9.196349479832456      -4.516276969664206E1    -9.209594398302150      -4.590504165008526E1    -5.483958263965246      -6.500967780460176E1
 2.523750000000000E8    -2.368462603363485      -7.225704911226711E1    -9.196350135591540      -4.523085917513109E1    -9.209776288871709      -4.597679892769252E1    -5.475718206314218      -6.507440221960127E1
 2.525000000000000E8    -2.371375113404145      -7.229642866150141E1    -9.196682010053900      -4.530273802597832E1    -9.209788388147320      -4.604529833782405E1    -5.467789423576771      -6.513422657066633E1
 2.526250000000000E8    -2.374515166818665      -7.233262594475039E1    -9.197173721464853      -4.537379529361558E1    -9.210294730900033      -4.611451392993517E1    -5.459703610929882      -6.519558387249279E1
 2.527500000000000E8    -2.378106598315631      -7.236836434147222E1    -9.197368524702219      -4.544504642946649E1    -9.210449637841824      -4.618328030099971E1    -5.451770785243962      -6.525430841560140E1
 2.528750000000000E8    -2.380553841892219      -7.239955093790107E1    -9.197339698355764      -4.550939024924472E1    -9.210754006688365      -4.625466082811691E1    -5.444056589736857      -6.531806615614798E1
 2.530000000000000E8    -2.383924775099857      -7.243656994641614E1    -9.197860257123976      -4.558163755728680E1    -9.211049894110326      -4.632317291840020E1    -5.435721131103937      -6.538088769076649E1
 2.531250000000000E8    -2.387152661226396      -7.247122238593782E1    -9.198242678221673      -4.565125907200471E1    -9.210926996141842      -4.639260862536575E1    -5.427114047881286      -6.544220793682369E1
 2.532500000000000E8    -2.390582627870946      -7.250581616012440E1    -9.198484147095785      -4.571991426506595E1    -9.211221519496355      -4.646099368500554E1    -5.419470018858062      -6.550236382192755E1
 2.533750000000000E8    -2.393626810867692      -7.254203994471717E1    -9.198833533421135      -4.578949419222715E1    -9.211838636551867      -4.653192522597051E1    -5.411595750552054      -6.556292912280749E1
 2.535000000000000E8    -2.396653320772288      -7.257759051727564E1    -9.199181364190936      -4.585925870958718E1    -9.211979605171143      -4.660239852603014E1    -5.403627868080509      -6.562454598387627E1
 2.536250000000000E8    -2.399842452632857      -7.261207858075605E1    -9.199587525940228      -4.592949514961997E1    -9.212181185942597      -4.667191742030966E1    -5.395838226520872      -6.568739422087896E1
 2.537500000000000E8    -2.403028974452912      -7.264946127421656E1    -9.199927482695546      -4.600066957518242E1    -9.212328405827522      -4.674183207766417E1    -5.387800969100952      -6.575174139419742E1
 2.538750000000000E8    -2.406078143427950      -7.268222083885566E1    -9.200241690177654      -4.607129843890971E1    -9.213058426985949      -4.681099064979643E1    -5.379958590134138      -6.580960473899030E1
 2.540000000000000E8    -2.409258656453360      -7.271847790751684E1    -9.200572071484114      -4.614133709669741E1    -9.213511682932877      -4.688171824418345E1    -5.372760082806312      -6.587135548231208E1
 2.541250000000000E8    -2.412416552645053      -7.275409062248993E1    -9.200961082022800      -4.620974896797812E1    -9.213740278966959      -4.694952216657664E1    -5.364624566135625      -6.592957126986764E1
 2.542500000000000E8    -2.415659261787142      -7.278738196799669E1    -9.201446709624886      -4.627870894664584E1    -9.213940536462587      -4.702131625537785E1    -5.356593027926024      -6.599430708347832E1
 2.543750000000000E8    -2.418750028993674      -7.282170397570458E1    -9.201427362582038      -4.634909142737755E1    -9.214261488788461      -4.708850324629886E1    -5.348546331426557      -6.605346605243301E1
 2.545000000000000E8    -2.422190328654741      -7.285877359428886E1    -9.201902719520284      -4.641872712577991E1    -9.214704489164919      -4.716029922354164E1    -5.340804816287843      -6.611639239988203E1
 2.546250000000000E8    -2.425065380940338      -7.289369383711366E1    -9.202240495999948      -4.648956324103612E1    -9.215125872971283      -4.722859740855649E1    -5.332871409860726      -6.617960879617377E1
 2.547500000000000E8    -2.428246876739138      -7.292702872813949E1    -9.202790894646913      -4.655789432636519E1    -9.215685781593848      -4.729880432612114E1    -5.325286639224230      -6.624086680054410E1
 2.548750000000000E8    -2.431370592477629      -7.296201915218195E1    -9.202997456944409      -4.662657942541611E1    -9.215648294726517      -4.736667828990898E1    -5.317098717025420      -6.630142494093461E1
 2.550000000000000E8    -2.434651017920292      -7.299614693130360E1    -9.203501145232622      -4.669622769980379E1    -9.216342119583285      -4.743751043331255E1    -5.309850945940497      -6.636195907858958E1
 2.551250000000000E8    -2.437504361864754      -7.303359352922567E1    -9.203727034759190      -4.676765433931489E1    -9.216608452024765      -4.750675659680878E1    -5.301669809900673      -6.642435627425034E1
 2.552500000000000E8    -2.441130705006147      -7.306987434528256E1    -9.204700662507507      -4.683884670227067E1    -9.217032798758744      -4.757549461773074E1    -5.293839980569079      -6.648546821042125E1
 2.553750000000000E8    -2.443689382414428      -7.310195423878166E1    -9.204326243946092      -4.690736091836507E1    -9.217268453701767      -4.764407402588282E1    -5.286054811361821      -6.654666667958345E1
 2.555000000000000E8    -2.447016316339702      -7.313721429606390E1    -9.205282033081446      -4.697632249625704E1    -9.217770665525228      -4.771492297774325E1    -5.278474324957672      -6.660717353337638E1
 2.556250000000000E8    -2.450574485339422      -7.317141001095905E1    -9.205621557513167      -4.704469366277376E1    -9.218568287645866      -4.778457004519479E1    -5.271082154741804      -6.667127067167719E1
 2.557500000000000E8    -2.453676148231151      -7.320642248420152E1    -9.205987383876227      -4.711390868942215E1    -9.218452291350101      -4.785607556996754E1    -5.262820675964251      -6.673551561327803E1
 2.558750000000000E8    -2.456931139983388      -7.323917453277953E1    -9.206472297239181      -4.718188999625214E1    -9.219262314979451      -4.792412121202455E1    -5.255565067691316      -6.679450313103520E1
 2.560000000000000E8    -2.459742695459471      -7.327309336138809E1    -9.206610993283572      -4.725333744238816E1    -9.219925135435993      -4.799512773982544E1    -5.248146244975644      -6.685705858624775E1
 2.561250000000000E8    -2.463274527244287      -7.331261183083440E1    -9.207472304824542      -4.732302864797197E1    -9.220062713933640      -4.806448123280146E1    -5.239792717349748      -6.691867993718307E1
 2.562500000000000E8    -2.466543993449703      -7.334816103336343E1    -9.207832379613565      -4.739590680092395E1    -9.221214323525425      -4.813401249354597E1    -5.232887869351187      -6.697865871829632E1
 2.563750000000000E8    -2.469587418798383      -7.338282417887308E1    -9.208320512822629      -4.746496725585202E1    -9.221501606880164      -4.820379026084415E1    -5.225045085981935      -6.704078158154131E1
 2.565000000000000E8    -2.472604116593182      -7.341574342303899E1    -9.208674000516062      -4.753245736363478E1    -9.221392249271920      -4.827285174839553E1    -5.216947216375586      -6.710196422978031E1
 2.566250000000000E8    -2.475988739663111      -7.345340696934088E1    -9.209557534624457      -4.760416301850003E1    -9.222214929126377      -4.834115031601765E1    -5.209607656294175      -6.716234841880387E1
 2.567500000000000E8    -2.479340572236134      -7.348578389682179E1    -9.210162906487385      -4.767259172556191E1    -9.222382395140922      -4.840958684641296E1    -5.201679283458702      -6.722202549470268E1
 2.568750000000000E8    -2.482894980270529      -7.352125401991698E1    -9.210573728430195      -4.774438420569390E1    -9.223002370453706      -4.847898290414572E1    -5.194282890024454      -6.728520826435644E1
 2.570000000000000E8    -2.486133892028395      -7.355274158125286E1    -9.210993960760355      -4.781038582463530E1    -9.223753456275354      -4.854977886398142E1    -5.187083341038258      -6.734706257313407E1
 2.571250000000000E8    -2.488681766871409      -7.358898485567683E1    -9.211381116734662      -4.788165326439871E1    -9.224195742153377      -4.861732197025299E1    -5.178879631751807      -6.740634277979576E1
 2.572500000000000E8    -2.492469114685183      -7.362290476017012E1    -9.212195995083242      -4.794904029147189E1    -9.224475089816044      -4.868767783897743E1    -5.171107840398864      -6.746940744756007E1
 2.573750000000000E8    -2.495568154144004      -7.365844013761846E1    -9.212568646084607      -4.802089191715330E1    -9.224905056862415      -4.875451953770813E1    -5.163371996219150      -6.752773898593728E1
 2.575000000000000E8    -2.498527164192284      -7.369091105983921E1    -9.213438800524028      -4.808903850422984E1    -9.225928206233174      -4.882539763551790E1    -5.156054356603065      -6.759200969541716E1
 2.576250000000000E8    -2.502287130937266      -7.373005693090310E1    -9.214101011250564      -4.816081673704970E1    -9.226183365687181      -4.889507294434469E1    -5.148234590507998      -6.764994741546748E1
 2.577500000000000E8    -2.505173705228390      -7.376239053863131E1    -9.214730511793457      -4.823046695428441E1    -9.226885935080048      -4.896501486455891E1    -5.141035702222510      -6.771410367490574E1
 2.578750000000000E8    -2.508425794042761      -7.379520762068171E1    -9.215125491110159      -4.830005432431738E1    -9.227520416063019      -4.903531195841996E1    -5.133956153124637      -6.777547105094338E1
 2.580000000000000E8    -2.511688840060794      -7.383162006112991E1    -9.215643905846415      -4.837072162601667E1    -9.227843572479161      -4.910451502336954E1    -5.126126482051258      -6.783615292076728E1
 2.581250000000000E8    -2.514516510992626      -7.386621679535648E1    -9.216153541596446      -4.843930274116723E1    -9.228547578433709      -4.917478790742302E1    -5.118720737698908      -6.789961732060736E1
 2.582500000000000E8    -2.518629978109362      -7.390139462109340E1    -9.217211659951642      -4.850633689113881E1    -9.229253661611445      -4.924462579376055E1    -5.111279219232559      -6.796151382981407E1
 2.583750000000000E8    -2.521666897479176      -7.393376590789838E1    -9.217950150666137      -4.857616841541797E1    -9.229588825665187      -4.931465464106491E1    -5.103633679002359      -6.802243093063186E1
 2.585000000000000E8    -2.524578378224210      -7.396781045720324E1    -9.218434671941475      -4.864706554896648E1    -9.230372311795696      -4.938300106317783E1    -5.095954921601662      -6.808446287575124E1
 2.586250000000000E8    -2.527583775178076      -7.400276758356364E1    -9.219117499095869      -4.871878169817825E1    -9.231099404088075      -4.945091026703662E1    -5.088457338300069      -6.814505726500488E1
 2.587500000000000E8    -2.531075549100403      -7.403572648783761E1    -9.219584322286268      -4.878584253563555E1    -9.231507676029500      -4.952083078943517E1    -5.081078192277833      -6.820822487312502E1
 2.588750000000000E8    -2.534072600536176      -7.407150471737246E1    -9.220179783771878      -4.885631038276965E1    -9.232209584685444      -4.958861064819732E1    -5.073788528535993      -6.826499841673480E1
 2.590000000000000E8    -2.537402571043967      -7.410304464017916E1    -9.220950338535429      -4.892408326980714E1    -9.232661210109171      -4.965731637567609E1    -5.065923120482113      -6.832528443339667E1
 2.591250000000000E8    -2.540160721330901      -7.413994164395716E1    -9.221621463930823      -4.899695711346222E1    -9.233208727351073      -4.972767013187860E1    -5.058613232791815      -6.839107722546787E1
 2.592500000000000E8    -2.543974248534156      -7.417614617984493E1    -9.222513300134386      -4.906725995075024E1    -9.233876019060110      -4.979744643219984E1    -5.051006437917346      -6.845257311066668E1
 2.593750000000000E8    -2.547130624215334      -7.420914155011349E1    -9.223252947235061      -4.913584695878998E1    -9.234670941870862      -4.986665910391697E1    -5.043672869034813      -6.851296292044255E1
 2.595000000000000E8    -2.550380198882537      -7.424170097657760E1    -9.223889509201024      -4.920391493532680E1    -9.235353457301102      -4.993449037430504E1    -5.036428716857771      -6.857231859251266E1
 2.596250000000000E8    -2.553689988650794      -7.427536992360479E1    -9.224675254855633      -4.927337066380377E1    -9.235996537920213      -5.000606392392805E1    -5.028697435083486      -6.863459417728545E1
 2.597500000000000E8    -2.556803405693001      -7.430878422170122E1    -9.225265008679788      -4.934103855293100E1    -9.236506595773163      -5.007449778169318E1    -5.021179499018769      -6.869698756718380E1
 2.598750000000000E8    -2.560029970882576      -7.434512979941121E1    -9.226427964733830      -4.941281707379051E1    -9.237619744626283      -5.014348122880388E1    -5.014514713064941      -6.875829349935691E1
 2.600000000000000E8    -2.563310254455775      -7.437960066863680E1    -9.227170346282334      -4.948237178854912E1    -9.238052211480346      -5.021446450855208E1    -5.006881083259403      -6.882016101516624E1
 2.601250000000000E8    -2.566407540758730      -7.441252157241273E1    -9.227932542701410      -4.955117338988064E1    -9.238839549913939      -5.028291048200209E1    -4.999684024112498      -6.888220771929545E1
 2.602500000000000E8    -2.569464169079140      -7.444387632513009E1    -9.228584376064633      -4.962006434019148E1    -9.239435472333049      -5.035034443495842E1    -4.991783079741867      -6.893996484593143E1
 2.603750000000000E8    -2.573027221025293      -7.447885751876444E1    -9.229333001160516      -4.968799436618570E1    -9.240460146893605      -5.042049466297524E1    -4.985018656496202      -6.900207353636894E1
 2.605000000000000E8    -2.576090675217604      -7.451349838428929E1    -9.229949923035640      -4.975858533771157E1    -9.241027945863019      -5.048991376482566E1    -4.977313846205723      -6.906455295734614E1
 2.606250000000000E8    -2.579595671529685      -7.454922743415499E1    -9.231116314227773      -4.982869102527141E1    -9.241647068433430      -5.055873747807057E1    -4.969887997378874      -6.912461631697697E1
 2.607500000000000E8    -2.582518210615580      -7.458051992743606E1    -9.231759220831544      -4.989768060000454E1    -9.242470116794726      -5.062804685889422E1    -4.962872021422483      -6.918394850041176E1
 2.608750000000000E8    -2.586007885762292      -7.461397324946753E1    -9.232705152611045      -4.996699583014529E1    -9.243184913550182      -5.069894406984378E1    -4.955578187326863      -6.924856727965684E1
 2.610000000000000E8    -2.589193765911900      -7.464900290678261E1    -9.233638895730213      -5.003501017988392E1    -9.243867470618355      -5.076596546565182E1    -4.948107466648030      -6.930838407209369E1
 2.611250000000000E8    -2.592678628036793      -7.468468141631107E1    -9.234689162701708      -5.010646215448803E1    -9.244727174587208      -5.083430180882178E1    -4.940696526438069      -6.936972713489935E1
 2.612500000000000E8    -2.595425105743512      -7.471694801508696E1    -9.235369146143970      -5.017345468328990E1    -9.245658553439089      -5.090337281141579E1    -4.933465355760958      -6.943275658300766E1
 2.613750000000000E8    -2.598812847795688      -7.474970590957193E1    -9.236330821346648      -5.024190754441805E1    -9.246414632607824      -5.097206763691300E1    -4.926459618157112      -6.949215281528754E1
