#  HZ   S   DB   R     50.00 
! Rohde & Schwarz Vector Network Analyzer 
! Rohde-Schwarz,ZNL3-2Port,1323001203101687,1.37.1.9-20.11.2.22
! Created: UTC 11/14/2023, 4:00:15 PM
! freq[Hz]                db:S11                  ang:S11                 db:S21                  ang:S21                 db:S12                  ang:S12                 db:S22                  ang:S22
 2.500000000000000E8    -9.884212035784817       4.324332878986625E1    -2.326524360634755      -1.086468979609758E2    -2.324576942779241      -1.089687720024917E2    -5.590655231324796      -6.380340842540298E1
 2.501250000000000E8    -9.880362286747291       4.318825974255964E1    -2.330625904075274      -1.087072051392185E2    -2.327467698592647      -1.090303661996742E2    -5.581699630212137      -6.387138567218413E1
 2.502500000000000E8    -9.876114174489373       4.311948101506589E1    -2.334389546849565      -1.087656053285232E2    -2.330976622065840      -1.090910721104504E2    -5.572681521270052      -6.393225329382918E1
 2.503750000000000E8    -9.871315059547571       4.304878084542311E1    -2.338184935078564      -1.088233098615346E2    -2.334636918261897      -1.091492827876598E2    -5.564666558157230      -6.399296002802888E1
 2.505000000000000E8    -9.867767007648801       4.298067048755181E1    -2.341797666424740      -1.088830197727454E2    -2.338399298954986      -1.092082936267456E2    -5.556693248106358      -6.405790262401996E1
 2.506250000000000E8    -9.863136825102083       4.290901432019709E1    -2.345438753366478      -1.089414526708610E2    -2.342230017979076      -1.092677301112930E2    -5.548325836067850      -6.412051004922887E1
 2.507500000000000E8    -9.858388309595723       4.284241285652451E1    -2.349246304185531      -1.090014705129370E2    -2.346084169139186      -1.093260028869600E2    -5.539561063507426      -6.417930500290895E1
 2.508750000000000E8    -9.855273062146015       4.277480347196720E1    -2.353030008739278      -1.090597153376626E2    -2.349751662269389      -1.093851225053389E2    -5.532124195926118      -6.424524835129721E1
 2.510000000000000E8    -9.850852699285522       4.270657015992523E1    -2.357243771177415      -1.091167116793392E2    -2.353592961192815      -1.094465701764339E2    -5.523811178022814      -6.430670589924658E1
 2.511250000000000E8    -9.846531030733413       4.263976006131407E1    -2.360470750270551      -1.091774617222708E2    -2.357510635260613      -1.095027774431699E2    -5.515721408101086      -6.436981043133881E1
 2.512500000000000E8    -9.842023149586582       4.256906780523504E1    -2.364488027330003      -1.092343994397639E2    -2.361266193867648      -1.095602466867311E2    -5.507373695111618      -6.443245186315154E1
 2.513750000000000E8    -9.839269345296515       4.250605235479010E1    -2.368175451599856      -1.092930227010123E2    -2.365227605903764      -1.096213315366911E2    -5.498905451812785      -6.448861719445176E1
 2.515000000000000E8    -9.833715366621474       4.243234591352185E1    -2.372184420011397      -1.093522847315471E2    -2.368745453662132      -1.096816515240468E2    -5.491197517194440      -6.455561167768913E1
 2.516250000000000E8    -9.829746709448978       4.235393038904385E1    -2.375893071296896      -1.094107882890838E2    -2.372595378138257      -1.097384755705027E2    -5.483558701661789      -6.461269018569212E1
 2.517500000000000E8    -9.825879122234555       4.229327917246450E1    -2.379772756720681      -1.094695200694273E2    -2.376299075246415      -1.097968462591713E2    -5.475648869950422      -6.467502814448360E1
 2.518750000000000E8    -9.821522291101981       4.222480903961518E1    -2.383324129855950      -1.095276752725825E2    -2.380135480360736      -1.098559844867064E2    -5.467434721167485      -6.473668532775936E1
 2.520000000000000E8    -9.817436672483487       4.215766688749228E1    -2.387277279114856      -1.095876423698057E2    -2.383921140038856      -1.099145203273831E2    -5.458895942660722      -6.479821009512679E1
 2.521250000000000E8    -9.813773490162019       4.208688703597282E1    -2.391052174739205      -1.096465375462887E2    -2.387743445043317      -1.099734748513867E2    -5.450983356999341      -6.486218436781077E1
 2.522500000000000E8    -9.809503413375024       4.201382840951386E1    -2.394926640765466      -1.097029672145109E2    -2.391658499467661      -1.100336271989629E2    -5.443748571598706      -6.492011081400840E1
 2.523750000000000E8    -9.805593345181554       4.194596435435825E1    -2.398648085014075      -1.097614318038572E2    -2.395442959237193      -1.100934390636685E2    -5.435384140926671      -6.498694402790376E1
 2.525000000000000E8    -9.801153958057338       4.188806639290954E1    -2.402619221032821      -1.098202281719775E2    -2.399284591120966      -1.101511444561031E2    -5.427665245494905      -6.504824273933242E1
 2.526250000000000E8    -9.797002964947392       4.181488531498816E1    -2.406539612864064      -1.098788832980045E2    -2.403404698936525      -1.102108010922012E2    -5.419232907471755      -6.511035494586989E1
 2.527500000000000E8    -9.792983923963179       4.175297440518727E1    -2.410226085209446      -1.099379125817031E2    -2.407260693736811      -1.102675706957303E2    -5.411203888362076      -6.517223952116268E1
 2.528750000000000E8    -9.789409364750783       4.167238808128998E1    -2.413892062625916      -1.099949288145034E2    -2.411121135302447      -1.103276004254149E2    -5.404219164143261      -6.523544775915397E1
 2.530000000000000E8    -9.785306646472661       4.160768220605254E1    -2.418029622836070      -1.100524328614155E2    -2.414891546899069      -1.103844419242948E2    -5.395217741973078      -6.529734826619921E1
 2.531250000000000E8    -9.781064254567950       4.154072314722491E1    -2.422219296354552      -1.101128092858299E2    -2.418492692359226      -1.104441690295719E2    -5.386987577446662      -6.536252577991363E1
 2.532500000000000E8    -9.777170366143141       4.147380784337016E1    -2.425591945519256      -1.101717990965613E2    -2.422195756112716      -1.105018586802385E2    -5.378250840278823      -6.542112954951159E1
 2.533750000000000E8    -9.773448694818118       4.140388720316928E1    -2.429831111323087      -1.102296562840515E2    -2.426422236424923      -1.105608006502654E2    -5.371442372109940      -6.548385808891246E1
 2.535000000000000E8    -9.769409068811479       4.133649294923212E1    -2.433372967706062      -1.102867637815735E2    -2.430139324636311      -1.106193178915936E2    -5.363809713804800      -6.554307158019067E1
 2.536250000000000E8    -9.765043331038804       4.126980741641876E1    -2.437520229048634      -1.103448749758815E2    -2.434107965057466      -1.106777588415340E2    -5.356377467323449      -6.560628263074032E1
 2.537500000000000E8    -9.760749911565382       4.119925381526024E1    -2.441038294345063      -1.104057010627290E2    -2.437796245078983      -1.107360614915727E2    -5.347973667353517      -6.567218331605763E1
 2.538750000000000E8    -9.757113169207503       4.113401120287119E1    -2.445033968621943      -1.104648183568987E2    -2.441865464614666      -1.107963128122685E2    -5.340319138981990      -6.572752334649050E1
 2.540000000000000E8    -9.752529244639637       4.106233950291406E1    -2.448817039585755      -1.105222297039159E2    -2.445819429647373      -1.108542199077188E2    -5.333084005589120      -6.579188175157107E1
 2.541250000000000E8    -9.748602498023388       4.099792416113335E1    -2.452951086935157      -1.105794061530583E2    -2.449452549132042      -1.109129893832429E2    -5.324320143904466      -6.585076641973433E1
 2.542500000000000E8    -9.744822053389509       4.092966863337654E1    -2.457039337415497      -1.106381542196234E2    -2.453452582136753      -1.109738439032806E2    -5.317073337628571      -6.591633944424306E1
 2.543750000000000E8    -9.741279411357452       4.086348344205474E1    -2.460430362684435      -1.106973840814448E2    -2.457480492056631      -1.110301761019501E2    -5.309130741506577      -6.597868025645833E1
 2.545000000000000E8    -9.737892211092444       4.079768182762471E1    -2.464425003515553      -1.107549900749620E2    -2.461297446241347      -1.110901161103923E2    -5.301293712205521      -6.604137018295559E1
 2.546250000000000E8    -9.733242468326893       4.072760356572630E1    -2.468383863328643      -1.108136162827713E2    -2.465427506662754      -1.111478856930834E2    -5.293353707451917      -6.610259245442836E1
 2.547500000000000E8    -9.729214187134025       4.065636532643988E1    -2.472576149819431      -1.108720015849471E2    -2.469382712316841      -1.112077789793788E2    -5.286057026512934      -6.616639013060784E1
 2.548750000000000E8    -9.725755989930477       4.058850085309594E1    -2.476434722453226      -1.109291931823577E2    -2.473069784058350      -1.112646755615455E2    -5.277747072325379      -6.622845717126746E1
 2.550000000000000E8    -9.721322143222524       4.052019119867301E1    -2.480448543071962      -1.109871390821839E2    -2.476857835995436      -1.113221902742873E2    -5.270194641251677      -6.628527465566975E1
 2.551250000000000E8    -9.717886917924707       4.045313875311312E1    -2.484186406272377      -1.110458243445962E2    -2.480953019338826      -1.113818529545372E2    -5.262477278913384      -6.634929769352303E1
 2.552500000000000E8    -9.713297077665425       4.038928778853787E1    -2.488345660388098      -1.111051144786891E2    -2.485020691462639      -1.114384991007965E2    -5.254692380045248      -6.641059002568721E1
 2.553750000000000E8    -9.710071915235760       4.031407219865046E1    -2.491963296429747      -1.111636084894741E2    -2.488879497898165      -1.114958050290544E2    -5.247162643123904      -6.647330047038690E1
 2.555000000000000E8    -9.706098454564705       4.024649223661211E1    -2.496158734526976      -1.112205992313436E2    -2.492737844860764      -1.115565547293841E2    -5.239814441871864      -6.653508666918843E1
 2.556250000000000E8    -9.701837645135301       4.018109632282444E1    -2.500211386957238      -1.112786526173496E2    -2.496699691693473      -1.116165357700419E2    -5.231957806412142      -6.659770583073428E1
 2.557500000000000E8    -9.698543947103161       4.011204344212208E1    -2.504023829830319      -1.113358416162849E2    -2.500456492544120      -1.116727553188111E2    -5.224230135302700      -6.665998708720782E1
 2.558750000000000E8    -9.694902665983022       4.004105886046767E1    -2.508172066637710      -1.113947548335405E2    -2.504676270728269      -1.117313710786993E2    -5.216493178363331      -6.672387273315152E1
 2.560000000000000E8    -9.691091828835694       3.997370086322007E1    -2.512046257389202      -1.114535030978756E2    -2.508425796969663      -1.117903756416796E2    -5.208903152573061      -6.678364790961099E1
 2.561250000000000E8    -9.686641332194871       3.990837985707653E1    -2.515862830238695      -1.115099056818207E2    -2.512710564055942      -1.118499036745407E2    -5.201385695314992      -6.684537657135479E1
 2.562500000000000E8    -9.683343183996634       3.984228340394995E1    -2.519748977436778      -1.115722982546669E2    -2.516808618826900      -1.119092828270726E2    -5.193734676937652      -6.690394747267172E1
 2.563750000000000E8    -9.679273442110901       3.977470112511193E1    -2.523727546414062      -1.116298590400308E2    -2.520605426707835      -1.119674333609711E2    -5.186159041701694      -6.696793386352469E1
 2.565000000000000E8    -9.676331732251892       3.970351128131787E1    -2.527920920298085      -1.116870861938734E2    -2.524151600659398      -1.120257444863240E2    -5.178193601252596      -6.703110362555893E1
 2.566250000000000E8    -9.671978513917827       3.963793704710442E1    -2.531806236873926      -1.117443937229773E2    -2.528627739907643      -1.120832949651986E2    -5.170905388219955      -6.709090286051473E1
 2.567500000000000E8    -9.667767167413592       3.956362843322076E1    -2.536046682539148      -1.118036788212646E2    -2.532491048227667      -1.121404838332308E2    -5.162832907795379      -6.715596956638919E1
 2.568750000000000E8    -9.663760105676882       3.950347695862221E1    -2.539983747334877      -1.118641856488858E2    -2.536337494809149      -1.122009499560534E2    -5.155126770766691      -6.721863398358495E1
 2.570000000000000E8    -9.660385430027254       3.943218456103094E1    -2.543720292513956      -1.119204707366184E2    -2.540370110222429      -1.122587143745032E2    -5.147755419145871      -6.728015495514722E1
 2.571250000000000E8    -9.656491548898444       3.936116130117470E1    -2.547519545792560      -1.119760880033533E2    -2.544537273511331      -1.123166305603503E2    -5.139901167070398      -6.734164345301272E1
 2.572500000000000E8    -9.653263863602339       3.929640419233991E1    -2.551901977725457      -1.120339443698823E2    -2.548411997565722      -1.123738314959834E2    -5.132257943465182      -6.740223052593770E1
 2.573750000000000E8    -9.649721423656182       3.923106344025119E1    -2.555722953861692      -1.120948160507030E2    -2.552304639080696      -1.124314974906286E2    -5.124298601333259      -6.746578793684539E1
 2.575000000000000E8    -9.644889443614282       3.915301228121415E1    -2.560000494585382      -1.121521671898638E2    -2.556712289262151      -1.124917254227256E2    -5.116862994525672      -6.752677996181522E1
 2.576250000000000E8    -9.641603716112808       3.909069017087072E1    -2.563773462389508      -1.122118253426744E2    -2.560597608014727      -1.125499131879704E2    -5.109987341094077      -6.758641600208468E1
 2.577500000000000E8    -9.637039036264742       3.902357599664266E1    -2.568033583158645      -1.122675816574667E2    -2.564775462641893      -1.126082642976748E2    -5.102627552487656      -6.765038432412463E1
 2.578750000000000E8    -9.633357285344633       3.895500016027629E1    -2.572080559895901      -1.123276487141233E2    -2.568685076293913      -1.126671394217643E2    -5.095689462483407      -6.771131654943248E1
 2.580000000000000E8    -9.629739117262293       3.888610294201152E1    -2.575626835853019      -1.123869364629901E2    -2.572676713348990      -1.127255220767729E2    -5.087740812015564      -6.777468914784980E1
 2.581250000000000E8    -9.626543900522345       3.881717667012367E1    -2.579961550227921      -1.124416325473069E2    -2.576687505959844      -1.127837718695431E2    -5.080096332716899      -6.783622011763349E1
 2.582500000000000E8    -9.623120499240896       3.875036889113540E1    -2.583920123827600      -1.125004043213165E2    -2.580784858949574      -1.128432201496366E2    -5.072733993554699      -6.789907267750027E1
 2.583750000000000E8    -9.618695777097761       3.867965728700719E1    -2.587932955107688      -1.125575888433919E2    -2.584598023982421      -1.129004897945880E2    -5.065073052592909      -6.796008385432047E1
 2.585000000000000E8    -9.615358950274262       3.861319141502562E1    -2.592234786869765      -1.126155876921126E2    -2.588729901845030      -1.129590087477690E2    -5.057304817746106      -6.802359322748366E1
 2.586250000000000E8    -9.611227111923148       3.854428627681565E1    -2.596203033477695      -1.126750732648296E2    -2.592823703217358      -1.130168258166412E2    -5.049705043649265      -6.808160119223199E1
 2.587500000000000E8    -9.609022929961430       3.847820925904973E1    -2.600423169381572      -1.127329394521367E2    -2.597058011786407      -1.130738006750476E2    -5.042707927435513      -6.814611301014371E1
 2.588750000000000E8    -9.604955115063644       3.841246086314945E1    -2.604262586719400      -1.127902106838660E2    -2.601189790862408      -1.131324243838480E2    -5.035353222783446      -6.820631128790853E1
 2.590000000000000E8    -9.600950117596959       3.834553818217299E1    -2.608846880328499      -1.128473845557908E2    -2.605216388768410      -1.131907252418455E2    -5.027299470701578      -6.826835554049553E1
 2.591250000000000E8    -9.597278185586424       3.827209909092112E1    -2.612717526167879      -1.129061973426444E2    -2.609149355177803      -1.132474103235916E2    -5.020047099419854      -6.833174732802352E1
 2.592500000000000E8    -9.593770578509119       3.821218003169265E1    -2.616428569273545      -1.129653133036839E2    -2.613147642982669      -1.133062066605117E2    -5.012635830917204      -6.839266761395412E1
 2.593750000000000E8    -9.590875462530903       3.814557065906703E1    -2.620810815146401      -1.130227785307833E2    -2.617333095931738      -1.133645775618157E2    -5.005668830259323      -6.845545019617857E1
 2.595000000000000E8    -9.587459603016367       3.806984351929301E1    -2.624754947492416      -1.130813335015215E2    -2.621654757968790      -1.134225080431073E2    -4.998592552314901      -6.851832482023454E1
 2.596250000000000E8    -9.583770310266223       3.800706167182106E1    -2.629015154349292      -1.131385093053632E2    -2.625694992802457      -1.134826704600101E2    -4.991242803783972      -6.857892862610717E1
 2.597500000000000E8    -9.580403922802883       3.793219910708626E1    -2.633011058952945      -1.131957165038680E2    -2.629756719305260      -1.135384349870615E2    -4.983657960343582      -6.864161378599836E1
 2.598750000000000E8    -9.575827576956218       3.786577931567902E1    -2.637216999187846      -1.132550519455049E2    -2.634021570266056      -1.135978161647284E2    -4.976666948612790      -6.870214948955804E1
 2.600000000000000E8    -9.572860945975487       3.780052595552365E1    -2.641210223280417      -1.133108133715385E2    -2.637854824687145      -1.136584792080463E2    -4.969081812770496      -6.876545265292842E1
 2.601250000000000E8    -9.569043648452114       3.772808181125879E1    -2.645466979500698      -1.133696273433627E2    -2.642110180057072      -1.137136637585604E2    -4.962183542868305      -6.882663791032152E1
 2.602500000000000E8    -9.565228713304547       3.765929419659513E1    -2.649389601728499      -1.134270031106832E2    -2.646293689588529      -1.137720146297999E2    -4.954607078508070      -6.888887737203798E1
 2.603750000000000E8    -9.561894559005193       3.759084285621207E1    -2.653384610907141      -1.134858111540663E2    -2.650701109919066      -1.138301078063220E2    -4.947715910791620      -6.895298969861132E1
 2.605000000000000E8    -9.558791467409611       3.752976704983832E1    -2.657501447400676      -1.135426543000409E2    -2.654544908268223      -1.138891488915038E2    -4.939822262738016      -6.901334620040528E1
 2.606250000000000E8    -9.555891479873617       3.746144330939632E1    -2.661877244454967      -1.136013077687191E2    -2.658766838585024      -1.139458404313982E2    -4.932514563776532      -6.907254172964818E1
 2.607500000000000E8    -9.552368260263226       3.739099474999547E1    -2.665930523636526      -1.136592653351675E2    -2.662924717939950      -1.140029314797485E2    -4.925040727073389      -6.913395343698598E1
 2.608750000000000E8    -9.547412411014211       3.732470796483300E1    -2.670045656706490      -1.137178659139644E2    -2.666947417141603      -1.140625778790783E2    -4.918148642019185      -6.919719916163132E1
 2.610000000000000E8    -9.545617181613403       3.725004444362640E1    -2.674370287163702      -1.137745602091306E2    -2.671427169578958      -1.141181455938889E2    -4.910936695233636      -6.925793138125775E1
 2.611250000000000E8    -9.541303969428437       3.719152539393944E1    -2.678528359777023      -1.138325949946013E2    -2.675907479878762      -1.141748090492050E2    -4.903532472653636      -6.931866760870004E1
 2.612500000000000E8    -9.538045887191025       3.712232574035505E1    -2.682616187457354      -1.138900473529804E2    -2.679566952739658      -1.142330019737152E2    -4.896228135582541      -6.938289366185657E1
 2.613750000000000E8    -9.534661527108058       3.705284613802690E1    -2.686765806021111      -1.139473301828611E2    -2.683596841939815      -1.142901009009501E2    -4.888519475369682      -6.944623193059201E1
