#  HZ   S   DB   R     50.00 
! Rohde & Schwarz Vector Network Analyzer 
! Rohde-Schwarz,ZNL3-2Port,1323001203101687,1.37.1.9-20.11.2.22
! Created: UTC 11/14/2023, 3:59:33 PM
! freq[Hz]                db:S11                  ang:S11                 db:S21                  ang:S21                 db:S12                  ang:S12                 db:S22                  ang:S22
 2.500000000000000E8    -9.898200458863741       4.346141648668301E1    -5.437506424537800       6.183501837058228E1    -5.437758435027973       6.133858253033904E1    -2.275171143793373      -7.100980143119577E1
 2.501250000000000E8    -9.893575499747255       4.339465907832655E1    -5.431664685381882       6.181142762159963E1    -5.430515901701655       6.130789497398081E1    -2.276954804356426      -7.104904748370339E1
 2.502500000000000E8    -9.888541455144482       4.331937947480665E1    -5.425055377893973       6.178654325952884E1    -5.423922210738325       6.128132764138346E1    -2.279015618781560      -7.108124287111404E1
 2.503750000000000E8    -9.884589212829839       4.324986625614412E1    -5.418563285808286       6.176206834700515E1    -5.417518754382805       6.125556805453153E1    -2.282363292289342      -7.111484125288085E1
 2.505000000000000E8    -9.880823231203902       4.318015766725950E1    -5.412590277733339       6.173660980530816E1    -5.411394290634043       6.122795645713190E1    -2.285547200931619      -7.115332472023114E1
 2.506250000000000E8    -9.875925958346022       4.310807064020469E1    -5.406401388412892       6.171221858053071E1    -5.405025694402758       6.120400233016904E1    -2.288218930299400      -7.118797890131532E1
 2.507500000000000E8    -9.870893926711458       4.304331943257912E1    -5.400090872062513       6.168599649642096E1    -5.398956351924660       6.117950197360842E1    -2.290960338244604      -7.122052653867826E1
 2.508750000000000E8    -9.866935191635916       4.296989162362907E1    -5.394032271214114       6.166177826989016E1    -5.392876539357852       6.115419255440335E1    -2.294404256355721      -7.125578234414310E1
 2.510000000000000E8    -9.863089596844668       4.290355412377404E1    -5.387977812038049       6.163614451190902E1    -5.386622003035169       6.112850285673953E1    -2.297161519174509      -7.128777489079822E1
 2.511250000000000E8    -9.858376255670612       4.283567130454641E1    -5.381638903257915       6.160940968466890E1    -5.380605230742277       6.110416326883755E1    -2.300700673902048      -7.132344165934569E1
 2.512500000000000E8    -9.854214199222719       4.276132298421636E1    -5.375576608328897       6.158494174290161E1    -5.374371294884002       6.107926745064307E1    -2.302885333295572      -7.135919091172521E1
 2.513750000000000E8    -9.850428273113289       4.269858556986291E1    -5.369044509862118       6.155904280893030E1    -5.368164208622589       6.105290715575990E1    -2.306147580911537      -7.139381960598246E1
 2.515000000000000E8    -9.845497522306388       4.262643364505622E1    -5.363189950967380       6.153353521218472E1    -5.362207304938192       6.102686262291169E1    -2.309448836850668      -7.142878188302839E1
 2.516250000000000E8    -9.841328203799275       4.255470135279658E1    -5.356965982114055       6.151057435640036E1    -5.355860367063546       6.100347157026835E1    -2.312795007286301      -7.146065307388810E1
 2.517500000000000E8    -9.836384034150417       4.248892539899038E1    -5.350892326661576       6.148411933813713E1    -5.349659343338690       6.097770623258583E1    -2.315921703082901      -7.149578179905039E1
 2.518750000000000E8    -9.832433009754682       4.241884426679125E1    -5.344780139297600       6.145955281364060E1    -5.343601544808063       6.095308136242278E1    -2.318637546339931      -7.152801423396296E1
 2.520000000000000E8    -9.828179489041313       4.235176048808888E1    -5.338501316587876       6.143221838053378E1    -5.337577451867804       6.092842511330059E1    -2.321780773909565      -7.156164132416778E1
 2.521250000000000E8    -9.823853544989102       4.228490978690328E1    -5.332528541287800       6.140642916077433E1    -5.331238144695661       6.090275076275126E1    -2.324699508911624      -7.159838239017012E1
 2.522500000000000E8    -9.819763694625175       4.221197851429711E1    -5.326374929042990       6.138264750292652E1    -5.325246050468344       6.087689066257807E1    -2.328054910140650      -7.162969617816033E1
 2.523750000000000E8    -9.815826240707530       4.214269489288817E1    -5.320351723521761       6.135559523455797E1    -5.319068895938281       6.085203477927753E1    -2.331306500171358      -7.166526658856542E1
 2.525000000000000E8    -9.811405637883880       4.207561697124577E1    -5.314234484414563       6.133061246788359E1    -5.312799927911013       6.082683899584946E1    -2.334261565239846      -7.170069931381776E1
 2.526250000000000E8    -9.807100726121710       4.200804141527439E1    -5.308088577515725       6.130447127700678E1    -5.307107471811870       6.080157633673802E1    -2.337233071385966      -7.173430342260733E1
 2.527500000000000E8    -9.802781139360109       4.194433681455835E1    -5.301807296129524       6.127798596581880E1    -5.300986572014262       6.077674693275868E1    -2.340315431019571      -7.177005939589995E1
 2.528750000000000E8    -9.798704311133850       4.185807446418013E1    -5.295359634066924       6.125347590008249E1    -5.294654936987994       6.075144794662051E1    -2.343617054055452      -7.180331066024578E1
 2.530000000000000E8    -9.794444878249905       4.179586350416250E1    -5.289534179978066       6.122856615375613E1    -5.288512702673199       6.072621084865568E1    -2.346055025594395      -7.183942352486601E1
 2.531250000000000E8    -9.790787959314304       4.172940773399976E1    -5.283627389655251       6.120142167837800E1    -5.282580580801199       6.070258290158760E1    -2.348989113363082      -7.187237928783769E1
 2.532500000000000E8    -9.786373040890279       4.166558482905535E1    -5.277547020994873       6.117711870557194E1    -5.276229764523950       6.067725952784178E1    -2.351964642009623      -7.190754609118294E1
 2.533750000000000E8    -9.782474817134123       4.159094401441498E1    -5.271580235037100       6.115090059413415E1    -5.270483936545698       6.064941790392970E1    -2.355789851718817      -7.194228707926111E1
 2.535000000000000E8    -9.778174846981235       4.152402508963373E1    -5.265261314444734       6.112657824522906E1    -5.264005455959028       6.062530531772880E1    -2.358558827230847      -7.197493013324211E1
 2.536250000000000E8    -9.773677480155687       4.145920803708765E1    -5.259415277776411       6.110056517074474E1    -5.257990503609875       6.060120199467812E1    -2.361887949472249      -7.200792539428002E1
 2.537500000000000E8    -9.769578007336928       4.138509294034658E1    -5.252927806468963       6.107222222529711E1    -5.251997001016163       6.057664373668445E1    -2.364879681752939      -7.204406017707826E1
 2.538750000000000E8    -9.765383006519976       4.131868002126556E1    -5.247090851926906       6.104512501850316E1    -5.245999774522851       6.054921965030953E1    -2.367977629373174      -7.207472010984775E1
 2.540000000000000E8    -9.761415722710010       4.124841420459860E1    -5.241067595312182       6.101886863468926E1    -5.239873066769912       6.052500451500045E1    -2.371342893395580      -7.211031896635966E1
 2.541250000000000E8    -9.757004616922975       4.118435229387021E1    -5.235078483445276       6.099535128135396E1    -5.233833433702437       6.049975816030977E1    -2.374471213445409      -7.214218882494038E1
 2.542500000000000E8    -9.753034564118348       4.111158660403689E1    -5.229224648263607       6.096836428895302E1    -5.227868456849000       6.047209647267845E1    -2.377413788232623      -7.218016549235927E1
 2.543750000000000E8    -9.749095824675669       4.104585546185140E1    -5.222866711906270       6.094267216034282E1    -5.221750202189950       6.044843413151955E1    -2.380478118981047      -7.221501560244435E1
 2.545000000000000E8    -9.745008282347529       4.097852127518666E1    -5.216585589688383       6.091621622158340E1    -5.215599456448747       6.042123020212773E1    -2.383459526993079      -7.224954976011155E1
 2.546250000000000E8    -9.741601547473898       4.091134869872715E1    -5.210950475176489       6.089003898317369E1    -5.209938970530853       6.039722285244788E1    -2.386543155461620      -7.228236628966162E1
 2.547500000000000E8    -9.736939900148453       4.083992618734204E1    -5.205158810137203       6.086440592874764E1    -5.203880648673694       6.037013459053913E1    -2.389808877851066      -7.231688893805635E1
 2.548750000000000E8    -9.733235354910171       4.076980107981230E1    -5.199091705417454       6.083889684774781E1    -5.197836606122217       6.034566424126654E1    -2.393040000929883      -7.234999391365463E1
 2.550000000000000E8    -9.729127281196430       4.069988274055354E1    -5.193120686735416       6.081322985421583E1    -5.191675514582012       6.031912041937905E1    -2.396169830644245      -7.238455086055806E1
 2.551250000000000E8    -9.724847380620954       4.062899569826196E1    -5.186964282271749       6.078505030381618E1    -5.185602457825476       6.029467214122874E1    -2.398947994712505      -7.241770416281071E1
 2.552500000000000E8    -9.720525830630857       4.056422441729467E1    -5.181075052642971       6.075884538654135E1    -5.179861062574695       6.027004867407430E1    -2.402348262024211      -7.245121742037341E1
 2.553750000000000E8    -9.716905770182118       4.049520427293788E1    -5.174760875631096       6.073341225897981E1    -5.173636687348870       6.024409327882116E1    -2.405644417593177      -7.248531076498482E1
 2.555000000000000E8    -9.712868326639862       4.042881411684193E1    -5.169119568660458       6.070874320973265E1    -5.167834911373680       6.021710849333069E1    -2.408972467180814      -7.252009444511727E1
 2.556250000000000E8    -9.708602439420357       4.036140451042132E1    -5.163063905845102       6.068266706632658E1    -5.161841054890248       6.018989198208021E1    -2.412192150843597      -7.255568052894250E1
 2.557500000000000E8    -9.704686885720047       4.028755013326725E1    -5.157097814904307       6.065535371957995E1    -5.155438468224840       6.016648965855435E1    -2.414978015271319      -7.258883493759332E1
 2.558750000000000E8    -9.700716598138801       4.022025616752131E1    -5.151221675577668       6.063055033069381E1    -5.149890726791440       6.014001906811645E1    -2.418663795909155      -7.262350163693789E1
 2.560000000000000E8    -9.696958002865280       4.015244100062423E1    -5.145168251100572       6.060247836991120E1    -5.143911790597634       6.011292420131736E1    -2.421884680417552      -7.265770149868496E1
 2.561250000000000E8    -9.692702923664262       4.008600377846950E1    -5.139162500960067       6.057870254549948E1    -5.137693616481301       6.008744403695039E1    -2.424560650791355      -7.269099080481257E1
 2.562500000000000E8    -9.688670506204884       4.001649382090163E1    -5.132979033664115       6.054790871761531E1    -5.132218255103478       6.006068400058643E1    -2.428159415748980      -7.272277758062886E1
 2.563750000000000E8    -9.684803858625589       3.994920384708143E1    -5.127063454069053       6.052257900353771E1    -5.126188525517506       6.003526099207239E1    -2.431534691375826      -7.275833336628887E1
 2.565000000000000E8    -9.681312082308985       3.988341730381040E1    -5.121321088748775       6.049687177650284E1    -5.119822323903055       6.001013096540792E1    -2.434272210486001      -7.278899772228920E1
 2.566250000000000E8    -9.676705054161483       3.981052974942055E1    -5.115206880022787       6.047023012002286E1    -5.113979659620379       5.998511663623308E1    -2.437390959753396      -7.282355989772563E1
 2.567500000000000E8    -9.672634323121020       3.974093128437309E1    -5.109372700581568       6.044341540149119E1    -5.108040229756941       5.995910206945592E1    -2.440643940034902      -7.286017967596126E1
 2.568750000000000E8    -9.668366349394764       3.968094513973985E1    -5.103465763772334       6.041556558172624E1    -5.102147646052323       5.993087051314525E1    -2.443810733361856      -7.289559127618968E1
 2.570000000000000E8    -9.665049445950235       3.960671050703819E1    -5.097579584035619       6.039072586520684E1    -5.096345504962794       5.990488805437028E1    -2.447692578723636      -7.292970282696727E1
 2.571250000000000E8    -9.661313826759914       3.953794783122715E1    -5.091354562054018       6.036518582420383E1    -5.090351270787069       5.988082794370345E1    -2.450197325236935      -7.296214733399100E1
 2.572500000000000E8    -9.657222293815412       3.946686479913951E1    -5.085668711442601       6.033776271760640E1    -5.084361240805389       5.985379386305024E1    -2.453506471867514      -7.299760505105513E1
 2.573750000000000E8    -9.653352999620155       3.940287676670756E1    -5.079702987112991       6.030926413046971E1    -5.078377536903017       5.982893537838881E1    -2.456212341931238      -7.302865065045987E1
 2.575000000000000E8    -9.649174994360020       3.932997583393969E1    -5.074060521456301       6.028521184256803E1    -5.072521936625166       5.980109588578985E1    -2.459264751618071      -7.306473617785090E1
 2.576250000000000E8    -9.644937266817653       3.926779526533467E1    -5.067995813805467       6.025740220535776E1    -5.066610926993206       5.977518292148027E1    -2.463067664011756      -7.309605305604208E1
 2.577500000000000E8    -9.641173643110669       3.919837026343077E1    -5.062427014037109       6.023101771447612E1    -5.061017335012164       5.974797807756231E1    -2.466815549059839      -7.313268153709471E1
 2.578750000000000E8    -9.637135838396592       3.913243418666905E1    -5.056265907089962       6.020431572255384E1    -5.054891370459202       5.972278278482974E1    -2.470119661677459      -7.316488853530876E1
 2.580000000000000E8    -9.633017806476520       3.906185851081553E1    -5.050117500753467       6.017660488809065E1    -5.048978339741877       5.969597719415238E1    -2.473076277392235      -7.319965853488452E1
 2.581250000000000E8    -9.629631692993495       3.899304692938227E1    -5.044465345407864       6.015135055434963E1    -5.043105395819730       5.967044973455095E1    -2.476360238823293      -7.323230248413670E1
 2.582500000000000E8    -9.625741464413981       3.892484232613018E1    -5.038431573953722       6.012374851207370E1    -5.037279937920732       5.964308863187446E1    -2.479614900499989      -7.326577668192598E1
 2.583750000000000E8    -9.621930268471340       3.885955876628378E1    -5.033054991210104       6.009926284614779E1    -5.031140376841972       5.961758595743932E1    -2.482454003482888      -7.330221028292503E1
 2.585000000000000E8    -9.618037298462326       3.878881583557474E1    -5.027072967790752       6.006999176079423E1    -5.025520513795971       5.958874721503770E1    -2.485855744683368      -7.333603501266515E1
 2.586250000000000E8    -9.614345986931664       3.871823770479750E1    -5.021337033731772       6.004289188862895E1    -5.019533011244196       5.956439795510821E1    -2.488769207579901      -7.336758656688279E1
 2.587500000000000E8    -9.610717950069604       3.865566294648853E1    -5.015128446075682       6.001617883202572E1    -5.013936742381735       5.953969890054793E1    -2.492734051972497      -7.340364474235311E1
 2.588750000000000E8    -9.607069704611305       3.859160564820726E1    -5.009447114065036       5.999081378547722E1    -5.008268048472438       5.951197882506416E1    -2.496113435038990      -7.343427005335177E1
 2.590000000000000E8    -9.603060240852390       3.851685929688933E1    -5.003906587209115       5.996350618818858E1    -5.002317163575317       5.948585135702015E1    -2.498784294897201      -7.346665428343849E1
 2.591250000000000E8    -9.599251274305789       3.845026578530762E1    -4.998101041025606       5.993540358177797E1    -4.996486387090778       5.945765858934875E1    -2.502408731235208      -7.350558488039832E1
 2.592500000000000E8    -9.595380531258964       3.838567550439484E1    -4.991942736411218       5.990655010338517E1    -4.990602567969874       5.943181481535738E1    -2.505395756647491      -7.353897040778524E1
 2.593750000000000E8    -9.591376383501437       3.831759732249154E1    -4.986351283932338       5.988080165181932E1    -4.984827026039791       5.940461363237955E1    -2.509205409098747      -7.357257327316883E1
 2.595000000000000E8    -9.587974638237812       3.824627545950261E1    -4.980377196496007       5.985481818340045E1    -4.979160574428504       5.937941309873560E1    -2.512306975091592      -7.360555568101627E1
 2.596250000000000E8    -9.584546294505923       3.818032022028454E1    -4.974636443009507       5.982600236391971E1    -4.973237234430918       5.935145613320940E1    -2.515754459478754      -7.363963098930873E1
 2.597500000000000E8    -9.581052909072326       3.810774252003035E1    -4.968948429184191       5.980115033042294E1    -4.967243288684148       5.932520268786902E1    -2.518389470615214      -7.367418540249713E1
 2.598750000000000E8    -9.576044085938982       3.804156681964285E1    -4.963283041055079       5.977278426607052E1    -4.961674687554591       5.929925550342721E1    -2.522165376840749      -7.370632823650715E1
 2.600000000000000E8    -9.573144341748861       3.797410001816821E1    -4.957456161258579       5.974749231768339E1    -4.955806682924421       5.927059618908675E1    -2.525510618192953      -7.374042699109216E1
 2.601250000000000E8    -9.568910366235279       3.790897648044309E1    -4.951750303718429       5.972174627312387E1    -4.949630782065687       5.924553367015661E1    -2.528579582789718      -7.377253875783198E1
 2.602500000000000E8    -9.565558175438953       3.783804918055871E1    -4.945864275491178       5.969368040106389E1    -4.944013912696895       5.921762301854321E1    -2.532115387832438      -7.380833926414286E1
 2.603750000000000E8    -9.561171912157185       3.777148921660334E1    -4.939808635691477       5.966628046466602E1    -4.938595791796897       5.919283942311460E1    -2.535677525382891      -7.383979391298180E1
 2.605000000000000E8    -9.558621988457931       3.770780648422865E1    -4.934091064945455       5.963860707802273E1    -4.932813878521396       5.916449830730992E1    -2.538835808848280      -7.387460655216505E1
 2.606250000000000E8    -9.554431430485895       3.763977107400674E1    -4.928506502396308       5.961147511090569E1    -4.927026961649771       5.913907009974728E1    -2.542186225241523      -7.390669611062400E1
 2.607500000000000E8    -9.550842042115649       3.756787630777492E1    -4.922833900854163       5.958415321148676E1    -4.921347087768363       5.911184573097881E1    -2.545367955571753      -7.393971405696495E1
 2.608750000000000E8    -9.546611700508649       3.750153014882301E1    -4.917226242073819       5.955479323702642E1    -4.915427983198238       5.908480006494162E1    -2.548590778210324      -7.397359577569378E1
 2.610000000000000E8    -9.543709313515981       3.743074319546202E1    -4.911413865297432       5.952866096550456E1    -4.909768120709989       5.905860765522138E1    -2.551970526727545      -7.400816288640415E1
 2.611250000000000E8    -9.539761143687857       3.736812561993273E1    -4.905650102439679       5.950094980428987E1    -4.904289555281654       5.903247893971646E1    -2.555370155339218      -7.404182398433235E1
 2.612500000000000E8    -9.535650227866826       3.729800230500179E1    -4.899863308326163       5.947373524385280E1    -4.898238105183408       5.900488504004807E1    -2.558581454019350      -7.407565209705064E1
 2.613750000000000E8    -9.531716777983444       3.723217945914746E1    -4.894167264701180       5.944839433410451E1    -4.892513960428989       5.898093693076697E1    -2.561661516755750      -7.410763823295476E1
