#  HZ   S   DB   R     50.00 
! Rohde & Schwarz Vector Network Analyzer 
! Rohde-Schwarz,ZNL3-2Port,1323001203101687,1.37.1.9-20.11.2.22
! Created: UTC 11/14/2023, 4:11:34 PM
! freq[Hz]                db:S11                  ang:S11                 db:S21                  ang:S21                 db:S12                  ang:S12                 db:S22                  ang:S22
 2.500000000000000E8    -9.575036738402900       4.243231804732768E1    -5.358493606769610       6.088283064395326E1    -5.359495527433873       6.028039531949403E1    -2.310747177406565      -7.187200075588299E1
 2.501250000000000E8    -9.571166415528108       4.236123275151099E1    -5.352438711148034       6.085926703433397E1    -5.351689401210614       6.024921471339882E1    -2.312570112242575      -7.191412361831165E1
 2.502500000000000E8    -9.567608353240741       4.228363529968394E1    -5.345754689185343       6.083038387674786E1    -5.344918127963614       6.021965161510649E1    -2.315161207032433      -7.194749531233457E1
 2.503750000000000E8    -9.563832232655821       4.220447983920381E1    -5.339146386334562       6.080256784915729E1    -5.338157272012488       6.019208282571861E1    -2.318417608838505      -7.198251654581468E1
 2.505000000000000E8    -9.560580334792279       4.213169010794950E1    -5.332483910537404       6.077655271384742E1    -5.331728239906689       6.016383421270983E1    -2.321612811824506      -7.202296980859354E1
 2.506250000000000E8    -9.555958311380223       4.205585333446803E1    -5.326239394547258       6.074924977316892E1    -5.325240362235343       6.013849608178831E1    -2.324681090848012      -7.205725100484190E1
 2.507500000000000E8    -9.552421392381817       4.198417355468893E1    -5.319857897006606       6.072164573571408E1    -5.318891399162098       6.010976953148205E1    -2.327590134719319      -7.209313715241429E1
 2.508750000000000E8    -9.548713477775328       4.190794612459990E1    -5.313296121865751       6.069491764239492E1    -5.312330556457992       6.008174763525120E1    -2.331097533369683      -7.213163966757487E1
 2.510000000000000E8    -9.545701941603054       4.183442119554492E1    -5.307030072543808       6.066783185801632E1    -5.305967497311732       6.005322708752686E1    -2.334078022280361      -7.216504944729633E1
 2.511250000000000E8    -9.542006089009401       4.176426651262778E1    -5.300514159316662       6.063877283537439E1    -5.299638555572348       6.002860974696622E1    -2.337764472275147      -7.220162085359753E1
 2.512500000000000E8    -9.537667776779983       4.168809333524812E1    -5.294045822980169       6.061462405311580E1    -5.293195483235355       6.000067797340399E1    -2.340493725635371      -7.223907941817542E1
 2.513750000000000E8    -9.534877333941630       4.161670625477650E1    -5.287463134906981       6.058538811294773E1    -5.287025271455027       5.997276987365399E1    -2.343843672670323      -7.227434984077982E1
 2.515000000000000E8    -9.530778958879086       4.153954681528727E1    -5.281349256970957       6.055761694758273E1    -5.280529873801799       5.994488025377706E1    -2.347157371549932      -7.231131382333525E1
 2.516250000000000E8    -9.526955225219210       4.146183919607116E1    -5.274936126677185       6.053142938458988E1    -5.274039176376891       5.992013586360537E1    -2.350732286414021      -7.234420836133808E1
 2.517500000000000E8    -9.523325077939496       4.138965587955433E1    -5.268533345355161       6.050303848804833E1    -5.267733906177842       5.989325405713286E1    -2.354118670076077      -7.237959616492519E1
 2.518750000000000E8    -9.519698415875615       4.131556751069873E1    -5.262025982904536       6.047466306546990E1    -5.261273748604825       5.986479845488469E1    -2.357269697841366      -7.241589629972752E1
 2.520000000000000E8    -9.515974321941215       4.124411898541270E1    -5.255626228336018       6.044472537875713E1    -5.254814115979452       5.983654079136060E1    -2.360390505563414      -7.245439157070510E1
 2.521250000000000E8    -9.512522881608280       4.116955989659039E1    -5.249145098945967       6.041568496973222E1    -5.248359022718169       5.980964022578068E1    -2.363664590336204      -7.249096587368439E1
 2.522500000000000E8    -9.509225909357646       4.109618154495077E1    -5.242861184798079       6.039015926559147E1    -5.242027119808502       5.978135144410480E1    -2.367008039679678      -7.252534664199233E1
 2.523750000000000E8    -9.505842281723291       4.101966060947199E1    -5.236350253880780       6.036150515185393E1    -5.235644223825776       5.975416758453659E1    -2.370462010506271      -7.256123862874192E1
 2.525000000000000E8    -9.501880754903945       4.095024882646523E1    -5.230042809519143       6.033462492824962E1    -5.229182548983954       5.972667272681413E1    -2.373775921318749      -7.259924949307528E1
 2.526250000000000E8    -9.497686038304646       4.087379930979210E1    -5.223513035870432       6.030736349878365E1    -5.222953887013838       5.969875841370072E1    -2.376583673321808      -7.263499739665541E1
 2.527500000000000E8    -9.494612991671179       4.080603601573391E1    -5.217297297743938       6.027659040875535E1    -5.216726961847397       5.967294279612227E1    -2.380169077721725      -7.266951849752755E1
 2.528750000000000E8    -9.491296049156366       4.072383831392931E1    -5.210797223853313       6.025198979104701E1    -5.210282319929989       5.964316454637610E1    -2.383711892380430      -7.270822165252042E1
 2.530000000000000E8    -9.487636522004850       4.065619273363142E1    -5.204788658868590       6.022459314914583E1    -5.203918617901274       5.961723382516892E1    -2.386485531456067      -7.274376925460784E1
 2.531250000000000E8    -9.484324745516957       4.058347190255190E1    -5.198627989195911       6.019583567796425E1    -5.197347085654411       5.959002863892732E1    -2.389256347056913      -7.277969456057335E1
 2.532500000000000E8    -9.481138211255676       4.050849850017816E1    -5.192191126712602       6.016646944830692E1    -5.190992377540416       5.956316000274618E1    -2.392640596452918      -7.281372932652430E1
 2.533750000000000E8    -9.476976960119927       4.043377820624455E1    -5.185798772031589       6.013962012274187E1    -5.185168864734132       5.953461491338506E1    -2.396648417301240      -7.285080159636864E1
 2.535000000000000E8    -9.473464706420897       4.036136916946336E1    -5.179240511772361       6.011233183382023E1    -5.178417429534311       5.950708328498079E1    -2.399872399107918      -7.288557054719217E1
 2.536250000000000E8    -9.470097839350014       4.029065509251861E1    -5.173219411997175       6.008446382786625E1    -5.172338797163708       5.948095851734416E1    -2.403649858255366      -7.292076839731634E1
 2.537500000000000E8    -9.466630248242016       4.021461040851020E1    -5.166768012887701       6.005465475899289E1    -5.165770737049416       5.945382283352877E1    -2.406243097455500      -7.295733678203308E1
 2.538750000000000E8    -9.462608332064971       4.014565187920163E1    -5.160563083856907       6.002570518650399E1    -5.159704220800664       5.942499035066061E1    -2.409847095059204      -7.298816475547895E1
 2.540000000000000E8    -9.459292428934502       4.007118824391084E1    -5.154266824740835       5.999891484386290E1    -5.153329265974619       5.939717984005059E1    -2.413375894871105      -7.302656312895999E1
 2.541250000000000E8    -9.456233729642534       3.999860765255556E1    -5.148365079308649       5.997145444107919E1    -5.146766157641196       5.936904718334169E1    -2.416257596652688      -7.305981531052363E1
 2.542500000000000E8    -9.452485556438040       3.992531469083908E1    -5.141971889228531       5.994342735585223E1    -5.140783012968543       5.934067925373300E1    -2.419838987895455      -7.309739033226342E1
 2.543750000000000E8    -9.448799467635512       3.985410035168697E1    -5.135320279485047       5.991480033447769E1    -5.134347331058484       5.931321771485287E1    -2.422960230634270      -7.313408574183666E1
 2.545000000000000E8    -9.445814004245962       3.978031142118682E1    -5.129206648524446       5.988538326568089E1    -5.128199968723729       5.928540744081045E1    -2.426258169638350      -7.317102955136410E1
 2.546250000000000E8    -9.442294256557737       3.970470088376231E1    -5.122789550374875       5.985729574156931E1    -5.122009331696608       5.925728648669018E1    -2.429374075043022      -7.320667436336144E1
 2.547500000000000E8    -9.438777917605067       3.963135266569892E1    -5.116764784501624       5.982922898127605E1    -5.115857657229671       5.922888769589338E1    -2.433102238717162      -7.324470228586353E1
 2.548750000000000E8    -9.435411428566571       3.955960661593416E1    -5.110584205240531       5.980284496477154E1    -5.109585765576252       5.920265346387501E1    -2.436338271588631      -7.327895741490332E1
 2.550000000000000E8    -9.431924709525379       3.948678945167487E1    -5.104572361997263       5.977436041617359E1    -5.103170413512935       5.917363706481323E1    -2.439764384751967      -7.331362881225837E1
 2.551250000000000E8    -9.428429823007152       3.940991715120172E1    -5.097972488037651       5.974502305202599E1    -5.096974850087243       5.914544925166230E1    -2.443094450460058      -7.335007666361166E1
 2.552500000000000E8    -9.424850893832788       3.933786020377369E1    -5.092017210197833       5.971487176407744E1    -5.090796442609436       5.911880790027423E1    -2.446048964110664      -7.338484471726720E1
 2.553750000000000E8    -9.421920146763618       3.926563685158442E1    -5.085460372997144       5.968730727131845E1    -5.084450711412828       5.909272591969951E1    -2.449830738729283      -7.342010429156144E1
 2.555000000000000E8    -9.418563483996936       3.919290033816573E1    -5.079506576549403       5.965998085813698E1    -5.078366325363287       5.906312106687030E1    -2.453343187255819      -7.345632138732965E1
 2.556250000000000E8    -9.414554170492401       3.912421152683505E1    -5.073320091551752       5.963145887777718E1    -5.072302241919495       5.903290644663132E1    -2.456720649598742      -7.349292826840730E1
 2.557500000000000E8    -9.411750436421475       3.904710113369833E1    -5.067078715174479       5.960333596537347E1    -5.065775843122093       5.900677815271322E1    -2.460157765367645      -7.352850535169038E1
 2.558750000000000E8    -9.408919172481681       3.897466017811260E1    -5.061251435369662       5.957505017071990E1    -5.059702497196319       5.897865159434634E1    -2.463597830471493      -7.356434807763833E1
 2.560000000000000E8    -9.405140674880654       3.890339054621239E1    -5.054671430697636       5.954729099148854E1    -5.053455360508410       5.894976734867200E1    -2.466941609149230      -7.359959871161610E1
 2.561250000000000E8    -9.401787566945588       3.883057527898584E1    -5.048499249425998       5.951931772557700E1    -5.047334102386881       5.892168811449858E1    -2.470297555769955      -7.363371235697210E1
 2.562500000000000E8    -9.398166045675438       3.876230499494169E1    -5.042093627904560       5.948837307980040E1    -5.041558609423094       5.889322230923848E1    -2.474115046280084      -7.366825087644122E1
 2.563750000000000E8    -9.395160359679570       3.868693651392824E1    -5.035980134426281       5.945850684009127E1    -5.035231425277948       5.886531915749883E1    -2.477402202542784      -7.370409788015196E1
 2.565000000000000E8    -9.391927871778980       3.861329999026155E1    -5.029823108259452       5.943194252910941E1    -5.028652902802735       5.883789018183494E1    -2.480679216871524      -7.373827067788794E1
 2.566250000000000E8    -9.388312266813262       3.853833349322638E1    -5.023699812446146       5.940354032886246E1    -5.022577711478090       5.880924757656452E1    -2.484119370268894      -7.377284776377313E1
 2.567500000000000E8    -9.385007251187607       3.846356801667977E1    -5.017874023006983       5.937471762909330E1    -5.016538903286664       5.878105159771190E1    -2.487448504352417      -7.380959655467767E1
 2.568750000000000E8    -9.381651587254105       3.839815478414256E1    -5.011597166800541       5.934350801419731E1    -5.010277983261108       5.875258131991483E1    -2.490576555693850      -7.384749363289454E1
 2.570000000000000E8    -9.378403777444552       3.831857005235566E1    -5.005301220476229       5.931554361721755E1    -5.004247402697171       5.872327432466290E1    -2.494744973773959      -7.388352695837318E1
 2.571250000000000E8    -9.375246900551456       3.824669449073866E1    -4.998893000386468       5.928923188301021E1    -4.998027206764187       5.869660821918639E1    -2.497476995601648      -7.391656083669606E1
 2.572500000000000E8    -9.372083429467660       3.817776790024831E1    -4.992939496668821       5.926035114660628E1    -4.991701073671236       5.866881664294120E1    -2.500763531778940      -7.395324955385554E1
 2.573750000000000E8    -9.369262796640784       3.810086062859532E1    -4.986976347331033       5.922821140372874E1    -4.985521327372376       5.864154096596555E1    -2.503787188043560      -7.398598860084904E1
 2.575000000000000E8    -9.365641809132505       3.802388910177767E1    -4.981091234445032       5.920132292067763E1    -4.979748386218152       5.861221829649802E1    -2.507403024703290      -7.402411166821156E1
 2.576250000000000E8    -9.362680849018663       3.796002848847609E1    -4.974848818926924       5.917127016461240E1    -4.973459300915312       5.858375739294331E1    -2.511199115938911      -7.405590580366007E1
 2.577500000000000E8    -9.358762043977135       3.788457775745754E1    -4.968882581911317       5.914416016725874E1    -4.967397274313566       5.855544659968263E1    -2.514737264890840      -7.409551356494342E1
 2.578750000000000E8    -9.355176004612618       3.781071628432858E1    -4.962566716173572       5.911409159100153E1    -4.961295486062848       5.852669531966524E1    -2.518708375619370      -7.412782048021505E1
 2.580000000000000E8    -9.352359627661002       3.773955667774778E1    -4.956402758435123       5.908413020103364E1    -4.955030308446026       5.849769388246305E1    -2.521920004694569      -7.416350798731030E1
 2.581250000000000E8    -9.349494671893657       3.766353513656034E1    -4.950380048335139       5.905663225170257E1    -4.949044951516809       5.847046894572998E1    -2.525490989090715      -7.419916245338747E1
 2.582500000000000E8    -9.346460603102756       3.759369149678795E1    -4.944195979627040       5.902796519084890E1    -4.943011654749478       5.844028201706852E1    -2.528812413483787      -7.423323897082547E1
 2.583750000000000E8    -9.342563885409866       3.751783695171524E1    -4.938340520496983       5.899882609502910E1    -4.936790573800300       5.841276165912473E1    -2.532144482625847      -7.427044644034669E1
 2.585000000000000E8    -9.340099850695630       3.744790197183990E1    -4.932333057393227       5.896894303520870E1    -4.930867456722014       5.838229833469786E1    -2.535510851240421      -7.430855066695435E1
 2.586250000000000E8    -9.336653141089021       3.737151265824820E1    -4.926315531740395       5.893982951964416E1    -4.924811217507266       5.835508272398698E1    -2.538848309976958      -7.433970497860727E1
 2.587500000000000E8    -9.333487377204190       3.730284369221185E1    -4.920019560896773       5.891171737027684E1    -4.918574321934216       5.832788370599791E1    -2.542360254083316      -7.437889376724479E1
 2.588750000000000E8    -9.330694812298432       3.723317768039242E1    -4.914139858751561       5.888283977373550E1    -4.912761823807573       5.829838293395373E1    -2.546250560563610      -7.441108218913345E1
 2.590000000000000E8    -9.327032046211341       3.716186458326452E1    -4.908234174702858       5.885516861658596E1    -4.906646429298609       5.827001905982898E1    -2.549534554078779      -7.444388937510087E1
 2.591250000000000E8    -9.324194206089199       3.708527342766125E1    -4.902281504842803       5.882468227617541E1    -4.900611991984082       5.824194098116430E1    -2.552902266338403      -7.448224164071407E1
 2.592500000000000E8    -9.320762845423674       3.702019299240074E1    -4.895962230397030       5.879452770381528E1    -4.894564811435323       5.821293525975662E1    -2.556465161928512      -7.451832669244463E1
 2.593750000000000E8    -9.317646984920893       3.694654362698627E1    -4.889953038619963       5.876683133927976E1    -4.888478735830507       5.818275749601484E1    -2.560144200647411      -7.455429051460534E1
 2.595000000000000E8    -9.314847496142223       3.686582277392746E1    -4.883734937719125       5.873662078611459E1    -4.882462832750269       5.815613147959961E1    -2.563674303980854      -7.458757227100860E1
 2.596250000000000E8    -9.311498196561450       3.679947156612402E1    -4.877795856242580       5.870693312648780E1    -4.876453790147061       5.812549124937527E1    -2.567081147848995      -7.462281790014443E1
 2.597500000000000E8    -9.308945005693722       3.672034920195006E1    -4.871968777282422       5.867903363815346E1    -4.870365889740501       5.809825464283750E1    -2.570587929641923      -7.465797425905909E1
 2.598750000000000E8    -9.304921707448738       3.665178324996857E1    -4.866081392621008       5.864955844450346E1    -4.864625700506203       5.806745732149937E1    -2.574381841379141      -7.469340079183031E1
 2.600000000000000E8    -9.302298034936513       3.658166612960065E1    -4.859858945262649       5.862115205696192E1    -4.858275983122259       5.803993596576558E1    -2.577895125530348      -7.472598327721853E1
 2.601250000000000E8    -9.299172892525732       3.650600404127201E1    -4.854018747903046       5.859080856709725E1    -4.852200766731000       5.801020936105920E1    -2.581498536762981      -7.476305548931219E1
 2.602500000000000E8    -9.296209425128930       3.643351267031500E1    -4.847983158919387       5.856207098447979E1    -4.846479371022097       5.798125946296151E1    -2.584746559154363      -7.479787230319073E1
 2.603750000000000E8    -9.293044555043982       3.636271356315724E1    -4.842038407400884       5.853170107461654E1    -4.840656322345926       5.795376362350606E1    -2.588725612651906      -7.483128562817062E1
 2.605000000000000E8    -9.290023618284851       3.629591596754539E1    -4.835735298588134       5.850326326916269E1    -4.834567341113058       5.792331103737238E1    -2.591936942562326      -7.486774157899019E1
 2.606250000000000E8    -9.286918958953699       3.621655465584998E1    -4.829877271059638       5.847241197474069E1    -4.828629746006916       5.789595773380033E1    -2.595612168660701      -7.490265479849981E1
 2.607500000000000E8    -9.284113212762557       3.614766159655960E1    -4.824141636615128       5.844420327677911E1    -4.822708535587960       5.786538774796252E1    -2.599050734970302      -7.493791649777498E1
 2.608750000000000E8    -9.280375466932018       3.607530768749124E1    -4.818004604322835       5.841190269990809E1    -4.816613324751305       5.783569876565701E1    -2.602825848379773      -7.497374251046206E1
 2.610000000000000E8    -9.278212091584120       3.600101572917021E1    -4.811914559248152       5.838489421840860E1    -4.810791648849010       5.780738774497631E1    -2.606078671151026      -7.500885086171921E1
 2.611250000000000E8    -9.274642217196320       3.593104524151558E1    -4.806182967260929       5.835397512055272E1    -4.805058971340273       5.777997313587714E1    -2.609540884123385      -7.504239744435152E1
 2.612500000000000E8    -9.272132918601606       3.586020890778966E1    -4.800418026291569       5.832627429908153E1    -4.798990358268915       5.775136119968466E1    -2.613428305155031      -7.507718097652823E1
 2.613750000000000E8    -9.268474721011792       3.578767241043560E1    -4.794275720051100       5.829659527361973E1    -4.792880525276218       5.772560728309926E1    -2.617015119341366      -7.511107468272689E1
