#  HZ   S   DB   R     50.00 
! Rohde & Schwarz Vector Network Analyzer 
! Rohde-Schwarz,ZNL3-2Port,1323001203101687,1.37.1.9-20.11.2.22
! Created: UTC 11/14/2023, 4:12:16 PM
! freq[Hz]                db:S11                  ang:S11                 db:S21                  ang:S21                 db:S12                  ang:S12                 db:S22                  ang:S22
 2.500000000000000E8    -9.574595958699387       4.226246226147384E1    -2.438955574657836      -1.130612394586295E2    -2.438061198170205      -1.134821066867411E2    -5.381232672844803      -7.148121410857624E1
 2.501250000000000E8    -9.571135989929475       4.219857636261270E1    -2.443367907432957      -1.131224054656360E2    -2.440776249332898      -1.135463536971508E2    -5.371683776100951      -7.154858695784390E1
 2.502500000000000E8    -9.567703677523086       4.212136811136299E1    -2.447077582831145      -1.131849040465509E2    -2.444794536398586      -1.136103844103219E2    -5.363328552348575      -7.161095777400153E1
 2.503750000000000E8    -9.563159959063851       4.204562889998696E1    -2.450629743450099      -1.132448955604214E2    -2.448594185788207      -1.136714936894619E2    -5.355545939626952      -7.167253657039574E1
 2.505000000000000E8    -9.560652477151461       4.197565567303301E1    -2.454738520659768      -1.133057056644888E2    -2.452599113132690      -1.137337728288112E2    -5.347662965678682      -7.173872551972566E1
 2.506250000000000E8    -9.555990551993569       4.189906760063734E1    -2.458619583943853      -1.133672849193594E2    -2.456396210420784      -1.137943952249968E2    -5.339208714976697      -7.180209830251879E1
 2.507500000000000E8    -9.552281326738518       4.182811223012844E1    -2.462694630041308      -1.134282452368677E2    -2.460584152684791      -1.138572740036543E2    -5.330948201239530      -7.186132632615073E1
 2.508750000000000E8    -9.549392227778812       4.175566895772431E1    -2.466716776142420      -1.134897411105792E2    -2.464516039482513      -1.139188318722150E2    -5.323127477789889      -7.192874220311752E1
 2.510000000000000E8    -9.545656346688498       4.168426279738276E1    -2.470634283512058      -1.135505768776795E2    -2.468492726710965      -1.139808807258863E2    -5.315104687513611      -7.198697218494948E1
 2.511250000000000E8    -9.541980225540039       4.161388608455598E1    -2.474443462262714      -1.136131569725351E2    -2.472218232520192      -1.140407639934462E2    -5.307361376765564      -7.205202484444906E1
 2.512500000000000E8    -9.538399783727790       4.153658234781076E1    -2.478483727047527      -1.136722283958894E2    -2.476577840622983      -1.141019259041065E2    -5.299014229311513      -7.211678712410128E1
 2.513750000000000E8    -9.536099704233679       4.147336564191447E1    -2.482476745118304      -1.137343301986292E2    -2.480818285575129      -1.141640210891206E2    -5.291309990662009      -7.217618046315575E1
 2.515000000000000E8    -9.531578025210829       4.139164791915108E1    -2.486618224820535      -1.137961561485832E2    -2.484473864838309      -1.142250624850886E2    -5.283251999733976      -7.223978016641394E1
 2.516250000000000E8    -9.528376184691956       4.131670277847390E1    -2.490904098952445      -1.138542966841837E2    -2.488439871397753      -1.142863455342122E2    -5.275852149734259      -7.229983644359736E1
 2.517500000000000E8    -9.524132411432552       4.124933050982982E1    -2.494873173656547      -1.139171651867372E2    -2.492412123806498      -1.143476345300160E2    -5.268161090065616      -7.236185479419046E1
 2.518750000000000E8    -9.520975674173787       4.116995192947564E1    -2.498691029275711      -1.139796336285325E2    -2.496326874197686      -1.144096983930560E2    -5.259817172019138      -7.242481557851050E1
 2.520000000000000E8    -9.517354915989213       4.110164401213008E1    -2.502757343818176      -1.140407793438436E2    -2.500501068003945      -1.144711980366592E2    -5.252043649761800      -7.248695817112335E1
 2.521250000000000E8    -9.514223354949438       4.102804761971539E1    -2.506774823389994      -1.141027595891034E2    -2.504771925986243      -1.145322708424267E2    -5.244109178868667      -7.254872541246745E1
 2.522500000000000E8    -9.511084691337841       4.095354730871544E1    -2.510768205346163      -1.141625597851363E2    -2.508721641294037      -1.145952004617797E2    -5.236510390737291      -7.261075936473912E1
 2.523750000000000E8    -9.508070045572991       4.088185090259770E1    -2.515029312346532      -1.142232129430151E2    -2.512637121869290      -1.146574770971055E2    -5.228479437596501      -7.267497760863648E1
 2.525000000000000E8    -9.503949840711648       4.081232417099466E1    -2.518791507967616      -1.142834894736106E2    -2.516770427010070      -1.147180179477818E2    -5.221290615274667      -7.273887138302393E1
 2.526250000000000E8    -9.500143758429946       4.073886090830956E1    -2.522889105062452      -1.143463298130278E2    -2.520955818707630      -1.147809491408750E2    -5.212764490606654      -7.280174322735542E1
 2.527500000000000E8    -9.496775012374780       4.067332036801378E1    -2.526791053304168      -1.144073869989815E2    -2.524852159792607      -1.148407282794927E2    -5.205054866229004      -7.286504464486764E1
 2.528750000000000E8    -9.493574222510329       4.058765917867705E1    -2.530683655776845      -1.144660104027019E2    -2.528941873796181      -1.149029315457541E2    -5.197776769941905      -7.292793348771863E1
 2.530000000000000E8    -9.490040972904316       4.052145534816215E1    -2.535033220663133      -1.145267263137515E2    -2.533006213176518      -1.149638351706876E2    -5.189452210159007      -7.299307511987354E1
 2.531250000000000E8    -9.486358548023547       4.044864988973227E1    -2.539243329363341      -1.145892102553919E2    -2.536934565933915      -1.150243351668328E2    -5.181240452933178      -7.305528533695836E1
 2.532500000000000E8    -9.483280059749310       4.037902352848052E1    -2.543159973615848      -1.146503215676389E2    -2.540897359253553      -1.150860532809430E2    -5.173334929706110      -7.311704233905873E1
 2.533750000000000E8    -9.479863061683773       4.030393037966571E1    -2.547333301025379      -1.147106287551474E2    -2.545274761178236      -1.151471141995178E2    -5.165738831884332      -7.317879050894904E1
 2.535000000000000E8    -9.476319467510441       4.023643535031174E1    -2.551294548599137      -1.147711595134109E2    -2.548924627599982      -1.152094852355014E2    -5.158349389867799      -7.324341860723564E1
 2.536250000000000E8    -9.472900304029196       4.016128649651084E1    -2.555541630958690      -1.148318874769550E2    -2.553299139531358      -1.152698819406624E2    -5.150931021345193      -7.330438921010402E1
 2.537500000000000E8    -9.469179847942467       4.008926568448710E1    -2.559070219735994      -1.148946151851876E2    -2.557140613313886      -1.153306160527151E2    -5.143066033566188      -7.337051406277186E1
 2.538750000000000E8    -9.465691711385437       4.002061076902068E1    -2.563665761602649      -1.149560688692393E2    -2.561388788507974      -1.153934358766768E2    -5.135519553728258      -7.342609370968701E1
 2.540000000000000E8    -9.462598346970688       3.994712645845549E1    -2.567788881180928      -1.150168480137883E2    -2.565536648920832      -1.154526378437339E2    -5.128587325642875      -7.348948541545306E1
 2.541250000000000E8    -9.459203758510114       3.987682874188320E1    -2.571843646303693      -1.150769087444336E2    -2.569609191618738      -1.155158822583952E2    -5.120429760110686      -7.355059477843854E1
 2.542500000000000E8    -9.456010281627417       3.980215831436269E1    -2.576134984593548      -1.151372850548552E2    -2.573746193324380      -1.155781042728019E2    -5.112487666724755      -7.361658590170482E1
 2.543750000000000E8    -9.452983549158892       3.972935481368786E1    -2.579901164771540      -1.152012652985541E2    -2.577853296134280      -1.156383596934843E2    -5.104807110705546      -7.368180018754254E1
 2.545000000000000E8    -9.449978495214893       3.966021828160827E1    -2.583976699552246      -1.152612865753445E2    -2.581895296259447      -1.157006316637619E2    -5.097167379933883      -7.374238187019526E1
 2.546250000000000E8    -9.446317742716436       3.958552144675870E1    -2.588162133625507      -1.153212799664212E2    -2.586200918278294      -1.157609812768250E2    -5.089344789256707      -7.380405942671159E1
 2.547500000000000E8    -9.442709081202210       3.951057711466239E1    -2.592450490970960      -1.153835711870390E2    -2.590412368141998      -1.158221740024055E2    -5.082089056128371      -7.386861676187836E1
 2.548750000000000E8    -9.439678132075144       3.944108837707311E1    -2.596523730512149      -1.154425843913138E2    -2.594258889639001      -1.158817500579741E2    -5.074176032193833      -7.393105305608645E1
 2.550000000000000E8    -9.436467087323072       3.936640519130251E1    -2.600829401114050      -1.155039055314498E2    -2.598409436611902      -1.159456162344448E2    -5.067243846241399      -7.399167384573326E1
 2.551250000000000E8    -9.433302715274172       3.929475749572894E1    -2.604899332766765      -1.155651059295743E2    -2.602691981756617      -1.160057105224103E2    -5.059521884939857      -7.405590927518199E1
 2.552500000000000E8    -9.429097306773546       3.922663636659610E1    -2.608997026087972      -1.156268538589712E2    -2.606781627083636      -1.160674806680202E2    -5.051412493261709      -7.411686857107634E1
 2.553750000000000E8    -9.427124732160328       3.914975373477631E1    -2.613056043565132      -1.156881373632726E2    -2.610630506979442      -1.161263476383567E2    -5.043905119555313      -7.418164618120478E1
 2.555000000000000E8    -9.423582954944434       3.907774411860844E1    -2.617489168913806      -1.157483388365380E2    -2.615072486491182      -1.161887017506310E2    -5.036622673962236      -7.424267922204049E1
 2.556250000000000E8    -9.419890446171962       3.901034570661874E1    -2.621525012238275      -1.158080791611401E2    -2.619301130805503      -1.162504899513430E2    -5.029279302913947      -7.430792205632143E1
 2.557500000000000E8    -9.417017839277657       3.893703343796609E1    -2.625375823653325      -1.158682150717108E2    -2.623046406904563      -1.163109884491442E2    -5.021753730087265      -7.437289173277858E1
 2.558750000000000E8    -9.414077585314697       3.886204235193136E1    -2.630026409452487      -1.159301010972675E2    -2.627593296019764      -1.163718834213164E2    -5.014367236565544      -7.443505181003866E1
 2.560000000000000E8    -9.410741883578897       3.878877613189632E1    -2.633777122933670      -1.159915695498309E2    -2.631813626394799      -1.164349978790645E2    -5.007015991316047      -7.449822626868652E1
 2.561250000000000E8    -9.407517399725556       3.872134947373719E1    -2.638224287004194      -1.160512597755569E2    -2.635782635408637      -1.164947242867711E2    -4.998973881163952      -7.455980104025537E1
 2.562500000000000E8    -9.404157041405455       3.865295446563596E1    -2.642086128960179      -1.161137945093586E2    -2.640378079455046      -1.165562197457149E2    -4.991925952784477      -7.461730800386343E1
 2.563750000000000E8    -9.400605688591329       3.857671363084852E1    -2.646397379935647      -1.161745940406741E2    -2.644455119965743      -1.166178746145100E2    -4.984222106149591      -7.468219799888222E1
 2.565000000000000E8    -9.398176787023345       3.850544189592879E1    -2.650649249048875      -1.162347758026063E2    -2.648285070758967      -1.166785976598573E2    -4.976986631636723      -7.474539328939628E1
 2.566250000000000E8    -9.394706702867467       3.843171578070897E1    -2.654753990793925      -1.162946022133513E2    -2.652677455148453      -1.167402582354701E2    -4.969470573861808      -7.480882732325981E1
 2.567500000000000E8    -9.391144446130587       3.835801542204577E1    -2.659278028687786      -1.163553500836751E2    -2.656816273115547      -1.168005177831334E2    -4.961794882555604      -7.487146575069480E1
 2.568750000000000E8    -9.387752724460707       3.829347757358742E1    -2.663233779787808      -1.164187570178585E2    -2.661130806749786      -1.168616815464620E2    -4.954606436743459      -7.493649209975831E1
 2.570000000000000E8    -9.384901705380210       3.821627455748123E1    -2.667487033277707      -1.164778649416652E2    -2.665038384734991      -1.169229931662479E2    -4.947259545373734      -7.499807100172349E1
 2.571250000000000E8    -9.382380824316950       3.814538001163417E1    -2.671609936217853      -1.165376490108841E2    -2.669555753067277      -1.169824453680842E2    -4.939406098277629      -7.506173341276552E1
 2.572500000000000E8    -9.378823979676797       3.807302953264883E1    -2.675910358535855      -1.165983766043523E2    -2.673639126824776      -1.170449282224918E2    -4.932115195668686      -7.512734176357426E1
 2.573750000000000E8    -9.376047360989075       3.800091225394198E1    -2.680083216718472      -1.166619819577136E2    -2.677837525629773      -1.171040707111658E2    -4.924239487127887      -7.518628781895704E1
 2.575000000000000E8    -9.372123933951002       3.792387351098677E1    -2.684538544472212      -1.167209476464875E2    -2.682260247203637      -1.171669221635133E2    -4.917140966112511      -7.524970126796869E1
 2.576250000000000E8    -9.368792198922481       3.786059168069009E1    -2.688334934033542      -1.167817533536671E2    -2.686447267757038      -1.172275206600741E2    -4.910167642823381      -7.530905055842872E1
 2.577500000000000E8    -9.365921841527584       3.778611094865400E1    -2.693087590007251      -1.168421140215051E2    -2.690582786697465      -1.172886834001235E2    -4.902772413201333      -7.537625355512461E1
 2.578750000000000E8    -9.362269181514730       3.771241793486115E1    -2.697166135480296      -1.169038401821361E2    -2.694677196592250      -1.173495858036849E2    -4.896067672413808      -7.543689643746342E1
 2.580000000000000E8    -9.359784158050115       3.764320634092108E1    -2.701250185035021      -1.169653097766824E2    -2.698619317320237      -1.174106245537788E2    -4.888328023640432      -7.549916719478428E1
 2.581250000000000E8    -9.356993972227357       3.756890689725309E1    -2.705564864244983      -1.170233080610614E2    -2.702960970355062      -1.174717099636690E2    -4.880398443705290      -7.556172288936583E1
 2.582500000000000E8    -9.353810397253593       3.749917046237402E1    -2.709867891987161      -1.170842430503501E2    -2.707508134011759      -1.175337098487884E2    -4.873497441426426      -7.562527204185763E1
 2.583750000000000E8    -9.350485414232896       3.742630372147018E1    -2.714275609174912      -1.171445677945482E2    -2.711634102754308      -1.175937977965024E2    -4.865940643408656      -7.568885164240007E1
 2.585000000000000E8    -9.347369055327890       3.735217084041621E1    -2.718435414858611      -1.172062634794386E2    -2.715967086387394      -1.176554992503160E2    -4.858475454830475      -7.575067812567892E1
 2.586250000000000E8    -9.344283425063821       3.728461051041337E1    -2.722873582799080      -1.172657773120564E2    -2.720170594277137      -1.177163087292782E2    -4.851196361727743      -7.581298526958139E1
 2.587500000000000E8    -9.341790052913176       3.721320477201648E1    -2.726838671439498      -1.173264414665953E2    -2.724371209409764      -1.177756225471771E2    -4.843794645944626      -7.587664796525560E1
 2.588750000000000E8    -9.339410318417210       3.714226977335991E1    -2.731354272852135      -1.173868970692705E2    -2.728588244818709      -1.178362173203125E2    -4.837260597863451      -7.593612011139297E1
 2.590000000000000E8    -9.335802937508733       3.706939322564828E1    -2.735820176847648      -1.174474745868837E2    -2.732962229924076      -1.178970184663247E2    -4.829471789105272      -7.599957934173383E1
 2.591250000000000E8    -9.332947048064527       3.699444431522956E1    -2.740186331484472      -1.175088215039882E2    -2.737410788547154      -1.179598437147493E2    -4.822509347913782      -7.606712094453736E1
 2.592500000000000E8    -9.329628072560403       3.692923681433765E1    -2.744028336490504      -1.175702286114931E2    -2.741490411674902      -1.180198012076593E2    -4.815340317141224      -7.612869184432837E1
 2.593750000000000E8    -9.326669230459888       3.685865274877057E1    -2.748527426718470      -1.176311662641560E2    -2.745761724812342      -1.180801330880723E2    -4.808268628517057      -7.618914191543504E1
 2.595000000000000E8    -9.324089899949321       3.678077454922665E1    -2.752620276703889      -1.176913544286534E2    -2.750342509059907      -1.181394185161829E2    -4.801340099989490      -7.625061225941566E1
 2.596250000000000E8    -9.320869917932654       3.671331605709950E1    -2.756932763401640      -1.177518523744407E2    -2.754680716768899      -1.182020204302460E2    -4.794442968360707      -7.631409083363192E1
 2.597500000000000E8    -9.318468007836087       3.663683858023608E1    -2.761236997124797      -1.178109727293230E2    -2.758775053567544      -1.182618270908087E2    -4.786498110202888      -7.637901478433159E1
 2.598750000000000E8    -9.314334065468701       3.656642036727422E1    -2.765734002914450      -1.178726742499990E2    -2.763334897037813      -1.183229474706104E2    -4.779788837224869      -7.644031412404598E1
 2.600000000000000E8    -9.311933855927334       3.649811103811248E1    -2.770020715487109      -1.179323925429388E2    -2.767606452830229      -1.183855785788330E2    -4.772814032384353      -7.650335944019773E1
 2.601250000000000E8    -9.309549990025150       3.642665423716771E1    -2.774674751282396      -1.179916827366104E2    -2.771725547192207      -1.184423344396587E2    -4.765820225439928      -7.656479084369631E1
 2.602500000000000E8    -9.306070069195071       3.634751352454757E1    -2.778587832712468      -1.180538557971824E2    -2.776174835969408      -1.185038603364158E2    -4.758209694056762      -7.662715837411805E1
 2.603750000000000E8    -9.302963387214854       3.628050353164846E1    -2.782836456270225      -1.181135396705141E2    -2.780579541986706      -1.185646022853051E2    -4.751160378693097      -7.669040259414837E1
 2.605000000000000E8    -9.301355998135838       3.621317709519579E1    -2.787252867974043      -1.181741782782088E2    -2.784894418519484      -1.186267631071388E2    -4.743839999370397      -7.675323561995494E1
 2.606250000000000E8    -9.297488542534625       3.614133084871213E1    -2.791487666679636      -1.182349045560182E2    -2.789175387617246      -1.186867035995715E2    -4.737016524114052      -7.681630763826392E1
 2.607500000000000E8    -9.294997065671168       3.607016866316837E1    -2.796074029179855      -1.182952805971899E2    -2.793624907485174      -1.187468459140133E2    -4.729915175222144      -7.687733657770232E1
 2.608750000000000E8    -9.290993611653281       3.599755955417439E1    -2.800347315660615      -1.183575831408601E2    -2.797710386550372      -1.188087307727769E2    -4.722419021668440      -7.694120269414647E1
 2.610000000000000E8    -9.289453743298928       3.592394081367563E1    -2.804574008906849      -1.184165406662196E2    -2.802248254201654      -1.188682406643199E2    -4.715449030687038      -7.700396449099456E1
 2.611250000000000E8    -9.285783839464242       3.585962641707642E1    -2.808996296722347      -1.184768797937114E2    -2.806907982061467      -1.189289387954823E2    -4.708755594729158      -7.706787603332063E1
 2.612500000000000E8    -9.282984917437386       3.578386284946576E1    -2.813308399329694      -1.185379156115999E2    -2.811097685168638      -1.189883692162447E2    -4.701591109618476      -7.712989307068813E1
 2.613750000000000E8    -9.280284402760779       3.571025412994258E1    -2.817773612937327      -1.185972692801133E2    -2.815242214824942      -1.190477947615776E2    -4.694218139808705      -7.719312449415794E1
