#  HZ   S   DB   R     50.00 
! Rohde & Schwarz Vector Network Analyzer 
! Rohde-Schwarz,ZNL3-2Port,1323001203101687,1.37.1.9-20.11.2.22
! Created: UTC 11/14/2023, 4:13:31 PM
! freq[Hz]                db:S11                  ang:S11                 db:S21                  ang:S21                 db:S12                  ang:S12                 db:S22                  ang:S22
 2.500000000000000E8    -2.342679354783347      -7.238360233585550E1    -9.222014274547782      -4.702032996937979E1    -9.237941704340461      -4.784531649408977E1    -5.432731054392665      -7.155822552225960E1
 2.501250000000000E8    -2.347501757701663      -7.242243738371285E1    -9.222571374643136      -4.709557534570120E1    -9.236649453974056      -4.792908646186414E1    -5.423601867344736      -7.162453732298849E1
 2.502500000000000E8    -2.350643518059159      -7.246061816006817E1    -9.222499238710844      -4.717212813061971E1    -9.236787541456264      -4.800609265773632E1    -5.415065966640460      -7.168591042918239E1
 2.503750000000000E8    -2.353844146351645      -7.249688038374400E1    -9.222350838893155      -4.724415524416914E1    -9.236525359544679      -4.808277787849899E1    -5.406419625242610      -7.174933068383319E1
 2.505000000000000E8    -2.357610671536252      -7.253420428921031E1    -9.222631123995424      -4.731645737869582E1    -9.236877734614676      -4.815865021336345E1    -5.398825615237603      -7.181412875976223E1
 2.506250000000000E8    -2.361085670255394      -7.257191628276266E1    -9.223007106786307      -4.738944975099263E1    -9.236816923719269      -4.823194205899284E1    -5.390413381666932      -7.187578761068622E1
 2.507500000000000E8    -2.364256811460512      -7.260649467517662E1    -9.223055003126454      -4.746378090301580E1    -9.237371620837479      -4.830441287839734E1    -5.382418327115477      -7.193613549734260E1
 2.508750000000000E8    -2.367273249908640      -7.264554992835144E1    -9.223320892308836      -4.753853774953296E1    -9.237667801841967      -4.838007787208144E1    -5.374800170067989      -7.200142009985991E1
 2.510000000000000E8    -2.370809305561323      -7.268210895200902E1    -9.223750710393553      -4.761046418194071E1    -9.238129057610886      -4.845553420628159E1    -5.366731457909312      -7.206451647509668E1
 2.511250000000000E8    -2.374212414496412      -7.271931735348916E1    -9.223805923469634      -4.768524915744586E1    -9.238095172406952      -4.852666463667033E1    -5.358976666287107      -7.212347843674094E1
 2.512500000000000E8    -2.377253029395940      -7.275670047960510E1    -9.224080891163677      -4.775774993873561E1    -9.238262541309416      -4.860007741363643E1    -5.350349602065585      -7.218787869993754E1
 2.513750000000000E8    -2.380085598820387      -7.279568695417434E1    -9.223974775254998      -4.783283795751086E1    -9.238766020437190      -4.867267880674213E1    -5.342536226191724      -7.224888270373982E1
 2.515000000000000E8    -2.383543007052872      -7.282956848085414E1    -9.224463750992122      -4.790509394377787E1    -9.238999456567774      -4.874986041766534E1    -5.334394346459231      -7.231458126761791E1
 2.516250000000000E8    -2.386959383143285      -7.286520892443600E1    -9.224824819312273      -4.797640276921152E1    -9.239168537105714      -4.882156409561959E1    -5.326660321020534      -7.237222560805296E1
 2.517500000000000E8    -2.390331537020314      -7.290306929735299E1    -9.225278527230195      -4.805032719716790E1    -9.239542793096037      -4.889633268773659E1    -5.318901789956713      -7.243726789212951E1
 2.518750000000000E8    -2.393392950330463      -7.294017453123800E1    -9.225336235728005      -4.812482542943307E1    -9.239846875682247      -4.897016151619613E1    -5.310641672911659      -7.249941390788402E1
 2.520000000000000E8    -2.396787599225255      -7.297701929064779E1    -9.225778710541086      -4.819907666947762E1    -9.240462565100554      -4.904203833879296E1    -5.303056948671475      -7.256004289490301E1
 2.521250000000000E8    -2.400285422893215      -7.301593607532618E1    -9.226260793827576      -4.827262894879495E1    -9.240426122329135      -4.911648889507357E1    -5.294869051496018      -7.262248637756409E1
 2.522500000000000E8    -2.403352452329294      -7.305213371587986E1    -9.226559318233555      -4.834373844796939E1    -9.241142579492351      -4.918994947153450E1    -5.287525954660717      -7.268569679809856E1
 2.523750000000000E8    -2.406817363162048      -7.308497532423860E1    -9.226640774849194      -4.841624726854503E1    -9.241323582248416      -4.926413627019455E1    -5.279461086332759      -7.274842529198369E1
 2.525000000000000E8    -2.409845470355332      -7.312420010926364E1    -9.226854620228252      -4.849105209227745E1    -9.241466821250029      -4.933782229813432E1    -5.271364025511959      -7.281203084249243E1
 2.526250000000000E8    -2.413327458014867      -7.316341162966414E1    -9.227631923057185      -4.856574300233394E1    -9.242019698647312      -4.940871743433051E1    -5.263484167214118      -7.287127793274270E1
 2.527500000000000E8    -2.417015670526419      -7.320181302665894E1    -9.227950795520766      -4.863998752783048E1    -9.242334626976829      -4.948178411793076E1    -5.255955270496763      -7.293412642665659E1
 2.528750000000000E8    -2.419605882201240      -7.323452042822827E1    -9.227860652302436      -4.870831241604028E1    -9.242738076185036      -4.955730253880027E1    -5.248081538102987      -7.300028839102475E1
 2.530000000000000E8    -2.423081514341322      -7.327288372227486E1    -9.228568871119592      -4.878290214393414E1    -9.243024293340243      -4.962922154694601E1    -5.239882026954552      -7.306141374876461E1
 2.531250000000000E8    -2.426873807583600      -7.330922695318782E1    -9.229131487856435      -4.885588265755300E1    -9.243227617636357      -4.970186239108325E1    -5.231993394999986      -7.312406571700032E1
 2.532500000000000E8    -2.429850687489014      -7.334646815892334E1    -9.229369583404658      -4.893084834804439E1    -9.243670720381477      -4.977476911552314E1    -5.224446934037914      -7.318470121067941E1
 2.533750000000000E8    -2.433060997785940      -7.338253376609794E1    -9.229589540683724      -4.900249850922964E1    -9.244369098276341      -4.984825221112290E1    -5.216961724986163      -7.324808062538693E1
 2.535000000000000E8    -2.436318212082890      -7.342103404088252E1    -9.230126345911749      -4.907540040849902E1    -9.244741460081354      -4.992334689159109E1    -5.209064533592623      -7.331209688542350E1
 2.536250000000000E8    -2.440086073799504      -7.345668489677969E1    -9.230639466907911      -4.914932622479815E1    -9.245039642129312      -4.999425609642994E1    -5.201368195277008      -7.337202817740251E1
 2.537500000000000E8    -2.443325916211897      -7.349608933491015E1    -9.230996228717320      -4.922366050948985E1    -9.245184538737117      -5.006944446016778E1    -5.193223013068310      -7.343872300310851E1
 2.538750000000000E8    -2.446681707795588      -7.353348435563039E1    -9.231484093114853      -4.929832207839547E1    -9.246086208708967      -5.014281061570605E1    -5.185511218286764      -7.349514154421502E1
 2.540000000000000E8    -2.449885837513353      -7.356869879290643E1    -9.231804492552051      -4.937041352597239E1    -9.246665895160126      -5.021542654416624E1    -5.178455262607425      -7.355953612871951E1
 2.541250000000000E8    -2.453719514791230      -7.360529645033530E1    -9.232377743290748      -4.944230327655620E1    -9.246849631912447      -5.028698153412437E1    -5.170417992325978      -7.362002528863307E1
 2.542500000000000E8    -2.456762903115357      -7.363991420186859E1    -9.232852049094191      -4.951515811890530E1    -9.247371022808322      -5.036246718648442E1    -5.162579470089015      -7.368359593742795E1
 2.543750000000000E8    -2.460130944316199      -7.367626832109805E1    -9.233004865025796      -4.958913694209544E1    -9.247745342890362      -5.043372828255314E1    -5.155013909264411      -7.374550075368747E1
 2.545000000000000E8    -2.463426879768920      -7.371501430310968E1    -9.233470099124872      -4.966145706005163E1    -9.248320351769863      -5.050852769134456E1    -5.147285539034117      -7.380974989802998E1
 2.546250000000000E8    -2.466848060436326      -7.374940237651649E1    -9.234030664697096      -4.973421510554719E1    -9.248718366796211      -5.057963857783361E1    -5.139196557611476      -7.387151681960475E1
 2.547500000000000E8    -2.470189922151005      -7.378391255271340E1    -9.234456923312093      -4.980655219773928E1    -9.249416373337979      -5.065466153589603E1    -5.132106534573913      -7.393658595240237E1
 2.548750000000000E8    -2.473298314689636      -7.382186012841927E1    -9.234885718806247      -4.987884450259232E1    -9.249621448997715      -5.072569473770330E1    -5.123851880660282      -7.399646228331402E1
 2.550000000000000E8    -2.476659308914444      -7.385936382478829E1    -9.235435736553255      -4.995386906956467E1    -9.250199326348532      -5.080053370051650E1    -5.116662705127851      -7.406035284457063E1
 2.551250000000000E8    -2.479928325904337      -7.389714873266215E1    -9.235793918962283      -5.002799870316823E1    -9.250672343399899      -5.087359190586600E1    -5.108851271955918      -7.412244159292644E1
 2.552500000000000E8    -2.483768881827170      -7.393382335104377E1    -9.236609087534637      -5.010159320487438E1    -9.251410473220872      -5.094515097059247E1    -5.101254348039269      -7.418267492684521E1
 2.553750000000000E8    -2.486940399190414      -7.397013180300088E1    -9.236864088062497      -5.017343668591627E1    -9.251825233204972      -5.101743735310886E1    -5.093673437573004      -7.424539117135912E1
 2.555000000000000E8    -2.490238697474602      -7.400639760183063E1    -9.237545940222811      -5.024597702431333E1    -9.252332174772169      -5.109264855828393E1    -5.086216166010104      -7.430977866879508E1
 2.556250000000000E8    -2.494006464923401      -7.404330203664856E1    -9.238162247798122      -5.031876061742543E1    -9.252978017226759      -5.116694733339771E1    -5.078372786119107      -7.437324731771511E1
 2.557500000000000E8    -2.497337714924955      -7.407968664158814E1    -9.238545448241517      -5.039091259238597E1    -9.253265550142995      -5.123920652655498E1    -5.070766102335373      -7.443531316833013E1
 2.558750000000000E8    -2.500883459528165      -7.411157904993240E1    -9.239088814331025      -5.046120874262841E1    -9.254000983428229      -5.131214305337905E1    -5.063514673154012      -7.449720289725691E1
 2.560000000000000E8    -2.503991268489854      -7.414849512725526E1    -9.239348949280016      -5.053599690039742E1    -9.254428541080323      -5.138711566717181E1    -5.055521489891365      -7.456059930733882E1
 2.561250000000000E8    -2.507603716268025      -7.418923582514253E1    -9.240242864017159      -5.060907974023713E1    -9.255135809054805      -5.145621686289346E1    -5.048340051640538      -7.461909630538239E1
 2.562500000000000E8    -2.510999668742712      -7.422820360806315E1    -9.240603271360415      -5.068602876241402E1    -9.255933500043167      -5.152993227334174E1    -5.040866458343008      -7.468238768882730E1
 2.563750000000000E8    -2.514266265603506      -7.426288235050676E1    -9.241145978666943      -5.075953339077212E1    -9.256443149821362      -5.160379627141318E1    -5.033020434456016      -7.474588194333171E1
 2.565000000000000E8    -2.517535084940593      -7.429730081841348E1    -9.241668300775764      -5.082949332417163E1    -9.256711316694728      -5.167774745427562E1    -5.025680950716575      -7.480915035880706E1
 2.566250000000000E8    -2.520863771939497      -7.433756856037569E1    -9.242432314706548      -5.090500145283018E1    -9.257575557376740      -5.174954100598076E1    -5.018143397413509      -7.487117644943322E1
 2.567500000000000E8    -2.524491658225822      -7.437106705930699E1    -9.243042846034403      -5.097610087291053E1    -9.258141399799944      -5.182229042613049E1    -5.010639397918641      -7.493330966361380E1
 2.568750000000000E8    -2.528101978653308      -7.440804759646583E1    -9.243576031133621      -5.105154415651352E1    -9.258687570361122      -5.189480816155404E1    -5.002913690414628      -7.499382685024281E1
 2.570000000000000E8    -2.531385590314794      -7.444320339200952E1    -9.244212559812672      -5.112150304598219E1    -9.259362196017948      -5.196989516530491E1    -4.995687395918048      -7.505907847031193E1
 2.571250000000000E8    -2.534500472249739      -7.448090425865983E1    -9.244512410868541      -5.119655242044880E1    -9.259909984309177      -5.204053711769556E1    -4.987587766942649      -7.511968869299832E1
 2.572500000000000E8    -2.538273533440333      -7.451782633790833E1    -9.245324368867669      -5.126816023720520E1    -9.260665942760633      -5.211431376327778E1    -4.980519779692433      -7.518641697050109E1
 2.573750000000000E8    -2.541832428990772      -7.455545459600732E1    -9.246028916669678      -5.134337586583413E1    -9.260904637158266      -5.218601406689426E1    -4.972384097401680      -7.524340274450945E1
 2.575000000000000E8    -2.544984818254541      -7.458752197143669E1    -9.246859160240422      -5.141456498525496E1    -9.261994449910500      -5.226011936246202E1    -4.965154443084622      -7.531042179498422E1
 2.576250000000000E8    -2.548344123363443      -7.462726713274274E1    -9.247035793522731      -5.149003872373859E1    -9.262691904344351      -5.233435378769495E1    -4.958153910648694      -7.537123543324496E1
 2.577500000000000E8    -2.551967895441332      -7.466476126002763E1    -9.248279980161659      -5.156360367198224E1    -9.263167662570167      -5.240743619945074E1    -4.950482990098050      -7.543535529442387E1
 2.578750000000000E8    -2.555511682644575      -7.469962515396236E1    -9.248773596996090      -5.163532191356779E1    -9.263977618881521      -5.247973284704437E1    -4.943555499982716      -7.549516633729202E1
 2.580000000000000E8    -2.559017635254593      -7.473751671448395E1    -9.249368705274211      -5.170957724449706E1    -9.264471098879687      -5.255342799760265E1    -4.935927503699620      -7.555871054204995E1
 2.581250000000000E8    -2.562000275733318      -7.477257834413550E1    -9.249808692848871      -5.178096046651383E1    -9.265043527719680      -5.262600948713658E1    -4.928326439165246      -7.562130799517499E1
 2.582500000000000E8    -2.565980116178250      -7.480803022280918E1    -9.250602394338646      -5.185259836488508E1    -9.265873534607682      -5.269907305955503E1    -4.920872523327782      -7.568305332102685E1
 2.583750000000000E8    -2.569098297101211      -7.484402482759856E1    -9.251446839219531      -5.192623004625661E1    -9.266508448838664      -5.277167731518016E1    -4.913675804611042      -7.574464475220839E1
 2.585000000000000E8    -2.572671489748269      -7.487994177940257E1    -9.252105903414787      -5.199966047682077E1    -9.267271564536623      -5.284555978660546E1    -4.905928191607032      -7.580868915248310E1
 2.586250000000000E8    -2.576000601242354      -7.491703853166632E1    -9.252922585119823      -5.207309559828616E1    -9.267980302975751      -5.291733446771363E1    -4.898599368284281      -7.587026935875751E1
 2.587500000000000E8    -2.579434282059728      -7.495258309263849E1    -9.253327035635770      -5.214584678908631E1    -9.268628744486042      -5.299106376747608E1    -4.891194816908289      -7.593547609180717E1
 2.588750000000000E8    -2.582995263416701      -7.498922496921405E1    -9.254020544397887      -5.221966208761862E1    -9.269567222274912      -5.306279397771199E1    -4.884264399441228      -7.599511597147594E1
 2.590000000000000E8    -2.586431042369558      -7.502358164913616E1    -9.254899226834285      -5.229089108194018E1    -9.270235151214390      -5.313437928906836E1    -4.876641973347573      -7.605521268096660E1
 2.591250000000000E8    -2.589888580927195      -7.506172305736553E1    -9.255762654147500      -5.236596342365220E1    -9.270729742756235      -5.320950967676470E1    -4.868909345616227      -7.612098845604206E1
 2.592500000000000E8    -2.593641164249717      -7.509872199006013E1    -9.256398802806194      -5.244046161425661E1    -9.271606278853911      -5.328300477788130E1    -4.861814341953384      -7.618396882746977E1
 2.593750000000000E8    -2.596947933282787      -7.513499407796924E1    -9.257209395090523      -5.251194427471344E1    -9.272379547200828      -5.335486403291819E1    -4.854809263105456      -7.624469079964337E1
 2.595000000000000E8    -2.600191608932116      -7.516815707756868E1    -9.257749561775512      -5.258388812771642E1    -9.273237662549342      -5.342760539174654E1    -4.847687255284510      -7.630812022103862E1
 2.596250000000000E8    -2.603666346565665      -7.520555446176404E1    -9.258473872302954      -5.265920650107277E1    -9.274180043798555      -5.350061654558790E1    -4.840800758520519      -7.636938697734233E1
 2.597500000000000E8    -2.607014926005709      -7.524133386403626E1    -9.259248219974772      -5.273001036742503E1    -9.274745817715285      -5.357474944922460E1    -4.832830055764855      -7.643281157441841E1
 2.598750000000000E8    -2.610513852470222      -7.527684330803343E1    -9.260117845262894      -5.280461511720588E1    -9.275789732321391      -5.364565131397624E1    -4.825764781047613      -7.649423866087798E1
 2.600000000000000E8    -2.614061453163419      -7.531451172363435E1    -9.260823347844397      -5.287583735145905E1    -9.276328873184411      -5.372131854080344E1    -4.818198105767262      -7.655650191799978E1
 2.601250000000000E8    -2.617515540948324      -7.535017504841231E1    -9.261689799571419      -5.294906069660951E1    -9.277210838230998      -5.379340659732382E1    -4.811335812550609      -7.661968540305189E1
 2.602500000000000E8    -2.621043391423238      -7.538335043211040E1    -9.262441103437721      -5.302133364056559E1    -9.278097805716977      -5.386583112798932E1    -4.803726748448861      -7.668092982928675E1
 2.603750000000000E8    -2.624703198521759      -7.542243513471617E1    -9.263325930260324      -5.309477367716807E1    -9.279041309050005      -5.393822724490128E1    -4.796739419748222      -7.674425843100859E1
 2.605000000000000E8    -2.628304510839237      -7.545844070977689E1    -9.264146864379745      -5.316593141112831E1    -9.279833555194152      -5.401352546996335E1    -4.789295705675395      -7.680799283520190E1
 2.606250000000000E8    -2.631433791662743      -7.549490132558191E1    -9.264899540793959      -5.324170732288878E1    -9.280693352540359      -5.408301282432750E1    -4.782409292697062      -7.686817614401143E1
 2.607500000000000E8    -2.635168111713068      -7.553025237223154E1    -9.265923152148316      -5.331566056994954E1    -9.281535712557631      -5.415696483619764E1    -4.775042281024055      -7.692986214336497E1
 2.608750000000000E8    -2.639049619504939      -7.556516005557451E1    -9.266878780437493      -5.338676405391045E1    -9.282241915434339      -5.422955860961059E1    -4.767964071394461      -7.699106698645603E1
 2.610000000000000E8    -2.642572860412157      -7.560174874285474E1    -9.267806047182635      -5.345975017756761E1    -9.283250904298534      -5.430148376554244E1    -4.760548152934535      -7.705436605677036E1
 2.611250000000000E8    -2.646089984783539      -7.563867305245945E1    -9.268605322491243      -5.353378245773734E1    -9.284498961232323      -5.437412326363408E1    -4.753651365467670      -7.711714742725938E1
 2.612500000000000E8    -2.648832014682807      -7.567221117573615E1    -9.269088288995391      -5.360733031232139E1    -9.285177571378906      -5.444639263735436E1    -4.746322673743435      -7.718061491860617E1
 2.613750000000000E8    -2.652670236979904      -7.570708718544429E1    -9.270128346937582      -5.367846781179686E1    -9.285767466278550      -5.451655173544080E1    -4.739037731925092      -7.724041380874581E1
