!Created with skrf (http://scikit-rf.org).
# Hz S RI R 50.0 
!freq ReS11 ImS11 ReS12 ImS12 ReS13 ImS13
! ReS21 ImS21 ReS22 ImS22 ReS23 ImS23
! ReS31 ImS31 ReS32 ImS32 ReS33 ImS33
!
250000000.0 -0.004818461806867185 0.2546134562522083 0.0679347774754459 -0.7521163085444429 -0.036218843524225275 0.5773247306578022
 0.07098610501654865 -0.7519110984413554 0.3904902221757891 -0.19097761890573847 0.45425216331371304 0.09552125133887583
 -0.04016456850351537 0.5773972075240982 0.45385356456687515 0.09977590472183732 0.6280662570445705 -0.1380963267851482
250125000.0 -0.004368475828214475 0.25458639892862805 0.06710801422722157 -0.7519639051954079 -0.035702168064004246 0.5778517519937041
 0.07018847541627239 -0.7516895676059654 0.3908763741200102 -0.19150207591127655 0.4544404226587037 0.0946275357905108
 -0.03967071701875122 0.5778543351959804 0.45397355883452317 0.09896710828401709 0.6275416897912712 -0.1392441927885603
250250000.0 -0.0038887195388640603 0.2545270083557087 0.06627891923364598 -0.7517376569645435 -0.03515393640876629 0.5782966187526792
 0.06939670367920556 -0.751457381552092 0.3912941710948452 -0.19201169597337125 0.45455387274722214 0.09377387859911972
 -0.0391412809084085 0.578309917339157 0.4541064460468493 0.09813894020005545 0.6270125508288673 -0.14031759000725283
250375000.0 -0.003385334251735436 0.25446544589762526 0.06551298062579695 -0.7515421587158929 -0.03464362574507541 0.5787569262524452
 0.06860370513575476 -0.7512673370175331 0.39170898413519767 -0.19251226642349756 0.45467460521928726 0.09291548127749266
 -0.03862680347838674 0.5787686364338357 0.45422338806488227 0.09732838278130025 0.6264816411997973 -0.1414271808998272
250500000.0 -0.002915265718733349 0.254388854470719 0.06470516422698785 -0.7513085163446186 -0.034114953373728364 0.5792037786210766
 0.0678243326441437 -0.7510587836974661 0.39206961215260067 -0.19304130014970686 0.45479661063178073 0.09208621475785747
 -0.03810189689756059 0.5792264888380654 0.45433978147480847 0.09650481536262039 0.6259467912451466 -0.14251099102915415
250625000.0 -0.002424416820600564 0.2543170813847611 0.0639163154812316 -0.7510702920551193 -0.03360350850577804 0.5796415237864131
 0.06702008042873546 -0.7508224945143354 0.3924676244270615 -0.1935671866683746 0.45488482107273065 0.09125980848808923
 -0.03759386373268255 0.5796702462734818 0.4544497880018952 0.09567867585079036 0.6253855687660411 -0.1435951864237402
250750000.0 -0.0019570205088081816 0.25425039339056676 0.06310798526880249 -0.7508514186861118 -0.033065546628781244 0.5800619276584743
 0.06621889321598018 -0.750593534609622 0.3929111937701577 -0.19409874243857528 0.4549734626681651 0.09042428688959651
 -0.03704759514833421 0.5801215142536897 0.45454940295708185 0.09485220047236731 0.6248298713610353 -0.1446938231305578
250875000.0 -0.0014773285602662284 0.25417356298284527 0.062340783759783636 -0.7506024331461933 -0.032538334996061215 0.5805086849032896
 0.06544782916619434 -0.7503857324869123 0.3932844049635569 -0.19459005928103976 0.45508390728494097 0.08960212089174423
 -0.03652610023915538 0.5805404724051436 0.45465687973604213 0.09404158845669555 0.6243015737439069 -0.14576889042972735
251000000.0 -0.0010085441533768727 0.25409130916637535 0.06151430337522849 -0.7503738374963225 -0.03200257982833002 0.5809440266699529
 0.06465536579201883 -0.750149217242777 0.39368886522406815 -0.1950968990159283 0.45517475940914826 0.0887639635937767
 -0.03598483453172445 0.580986320807464 0.45475277190543867 0.09321666592519046 0.6237437612885807 -0.14683736370605827
251125000.0 -0.0005546790834486336 0.254018610416044 0.06073160408536206 -0.7501397850395956 -0.03148861834250451 0.5813834393346176
 0.06385873634326411 -0.7499302401883147 0.3940440456629692 -0.19561386052022317 0.4552761400742627 0.08794977599952614
 -0.035480074189612194 0.5814383609983901 0.45487047205861747 0.09239425899253498 0.6231832038013493 -0.1479242247530342
251250000.0 -3.890879109518419e-05 0.25393213291090694 0.05995118909416691 -0.7499042680171558 -0.03096844352405307 0.5818112151195929
 0.06306893542967663 -0.7496929862115214 0.3944684516580968 -0.1961741613265583 0.45536031718802783 0.08713417829617386
 -0.0349632650264086 0.5818771156055313 0.4549630661139678 0.09158386910993277 0.6226426366112021 -0.14901068051314714
251375000.0 0.0003742012605819643 0.25384707435742015 0.05915903113901889 -0.749692034757892 -0.030425897770586068 0.5822321216673891
 0.06230051506469297 -0.7494657377995119 0.3948954216364354 -0.1966875425693405 0.45543388333625284 0.08629622638057942
 -0.03444678119806306 0.5823125006980697 0.45506306021036974 0.09077270961860212 0.6220761417065068 -0.15008864039823425
251500000.0 0.0008937824857912347 0.25377660838132093 0.05835544053107697 -0.7494648313975097 -0.029902330053561882 0.5826788395413368
 0.061491918860423725 -0.7492196765661211 0.395249598002639 -0.19722204052019002 0.45554127228116503 0.08547243158222899
 -0.033894679165755955 0.582746861707699 0.4551488804041511 0.08992937956289423 0.6215436607336046 -0.15115199120942494
251625000.0 0.0013990037301366027 0.2536796201052562 0.057574766469496226 -0.7492180799875084 -0.029386297308072278 0.5831195878440303
 0.060721615081149094 -0.749001823275564 0.39562174927519334 -0.19770279851440828 0.45562172537614404 0.08465309297709067
 -0.03338468954299645 0.5831715877333187 0.4552327901675726 0.08912182116731683 0.6209428148127761 -0.15217977926602913
251750000.0 0.0018556218464540856 0.25362581542965323 0.05679601694618684 -0.7489864850527975 -0.028854002726633896 0.5835507276696817
 0.059918377805905684 -0.748766542537764 0.3960186786409491 -0.19822273712919725 0.45571263420048885 0.08381919598093603
 -0.03284375526212081 0.5836173033615546 0.45532205816507076 0.08829432167586469 0.6203922497681873 -0.1532843096170059
251875000.0 0.0023192415730240146 0.25352357759049665 0.05601640349480581 -0.748750168499288 -0.028323929447563206 0.5839799034079274
 0.059141308367928365 -0.7485310314277811 0.39640745056212345 -0.1987470961767181 0.4557897562830242 0.08300447950130412
 -0.03230886807026405 0.584054557016378 0.45540956988351744 0.08748199977983674 0.619853690154269 -0.15432216442912164
252000000.0 0.0027668298102688964 0.25345918808091084 0.05519525726886104 -0.7485170253202176 -0.027787080573089984 0.5843985858900035
 0.05835559849703069 -0.7483034533839117 0.39681113228058146 -0.19928550054000038 0.4558555892153679 0.08217591668313538
 -0.03176392276595693 0.5844952508317135 0.4555158315219009 0.08665694932248226 0.6192638642353814 -0.15538573295091715
252125000.0 0.0032360330295615556 0.25338108454397396 0.05442187362429224 -0.7482740054236698 -0.027262124881069407 0.5848349161767128
 0.057565062297193687 -0.7480661741888552 0.3971828497382859 -0.19981151236354452 0.45593126157475045 0.08136418263744881
 -0.03122744768570467 0.5849255277968578 0.4555953184727102 0.08582281187141397 0.6186909436424343 -0.15641821213911022
252250000.0 0.003716816414729423 0.25327985306439055 0.05361302510898646 -0.7480422367197598 -0.026714803750751446 0.5852823085486152
 0.0568028428113191 -0.7478047022058402 0.3975662909824681 -0.2003070179512493 0.4560079912952621 0.08052119024307414
 -0.030709152687065266 0.5853533209576974 0.45566701278649285 0.08502557573853743 0.6181312737672401 -0.1574672795358485
252375000.0 0.004214541962674423 0.25317484175624794 0.05284998206772141 -0.7477908652673626 -0.026187480453055075 0.5857112756371533
 0.056007731015218325 -0.7475976536221648 0.39795502343579786 -0.20084633200314325 0.4560777732373145 0.07969492570425442
 -0.030179042934063868 0.585796158551319 0.45575110300701366 0.08421741057126038 0.6175401445304092 -0.15852966550406553
252500000.0 0.004653987572574714 0.2531237484421128 0.05207056054119956 -0.7475623967285281 -0.025657516684791756 0.5861386613044827
 0.055224762133548405 -0.747349103625833 0.39831906568042613 -0.201384235563516 0.4561556123251485 0.07888703256714685
 -0.029642758894328453 0.586221962756206 0.45582903339785774 0.08339290062133077 0.6169545909486768 -0.15954610037009104
252625000.0 0.005142250104773963 0.25302982726843226 0.05127845490276621 -0.7472849404679154 -0.025124279021102498 0.5865382593302564
 0.05443203513472869 -0.7471080730131183 0.3987129810440738 -0.20192352281912598 0.45620432261711924 0.07806720922930074
 -0.02910569286589843 0.5866467208306718 0.4559151007123732 0.0825680363135648 0.6163731109699799 -0.16059818736722192
252750000.0 0.005569326039324596 0.2529584356478785 0.050520581374593525 -0.7470604070320691 -0.024601019193099715 0.586969235406519
 0.05365928797769013 -0.7468865415267938 0.39908974454314555 -0.20245628941487517 0.45627631082679965 0.07726120151774613
 -0.02857960599830547 0.5871037509693412 0.45599967177590245 0.08175574986530129 0.6157933624358556 -0.16161506290250388
252875000.0 0.0061060478234808615 0.2528106557283292 0.04972523895886357 -0.7468018684482391 -0.024065560155805556 0.587421507368
 0.05287852443592975 -0.7466464930425468 0.39942925126280054 -0.20295133169727356 0.4563580726342537 0.07643431811628035
 -0.028042816618298133 0.587521361335469 0.45606210946146036 0.08095582758521154 0.6152378779479653 -0.1626409890174454
253000000.0 0.006558009457082745 0.25273269305426005 0.048942551372368755 -0.7465533081295361 -0.02353593681572168 0.587824624876323
 0.052112468263661935 -0.7464058488603453 0.39983158374943256 -0.2035307785955588 0.45641146389910564 0.07562938098292044
 -0.027512742320194773 0.5879378644905091 0.45612400168323464 0.08015151324439608 0.6146507105602345 -0.16368348791564002
253125000.0 0.007027066958822605 0.252659007545127 0.04817531104231073 -0.7463064102732746 -0.023006421496012307 0.5882536510861622
 0.0513204257451166 -0.7461473917520994 0.40019179334476485 -0.20405751782659518 0.45647361647839446 0.07481850326615798
 -0.026956894234977193 0.5883542479892144 0.45619264001153054 0.07931730189242324 0.6140656092507677 -0.16472567741433994
253250000.0 0.007494294541215626 0.2525682112208056 0.04738992535032501 -0.7460655954154535 -0.02245702894674077 0.5886779289125109
 0.050547897186430324 -0.7459150635856916 0.4005890922389118 -0.2046075224560359 0.4565356738076511 0.07399805174635171
 -0.02642902181345192 0.5888031290866322 0.45626649098980415 0.07850750958560299 0.6134954647688411 -0.16576290223397805
253375000.0 0.00796956224229428 0.2524587347502027 0.046617021376717346 -0.7458102230072179 -0.021912246720598327 0.589107453874143
 0.04973845592706404 -0.7456572457301408 0.40095578674252197 -0.2051074081780201 0.45659159055797405 0.07315560428778954
 -0.025893436685363855 0.5892191388831575 0.45633195961768 0.07769854661930103 0.6128999881913697 -0.16679002626155567
253500000.0 0.008400347361605841 0.25238524568255566 0.04584212129957479 -0.7455737137479979 -0.02138168644056123 0.5895458899228803
 0.04901695340881192 -0.7454028298895934 0.4013226977700388 -0.20565483198304174 0.4566607952868145 0.07235834353122403
 -0.025366332594754477 0.5896486539677086 0.456395579907542 0.07689998170005946 0.6123325294655187 -0.16779471242253924
253625000.0 0.008870521550780542 0.2523042029816915 0.04508079135269215 -0.7453235762195326 -0.020854206481945112 0.5899543491713202
 0.04822802682516769 -0.7451464764701895 0.40169114550505053 -0.20618343508614378 0.4567050662961867 0.07154418115657936
 -0.02482576533757194 0.5900616324475912 0.45645786029726626 0.07607695762063368 0.6117386117884277 -0.16879496184852874
253750000.0 0.009338073253810957 0.25220295469156634 0.04429541542620656 -0.7450602198965518 -0.02030530547757824 0.590388985311407
 0.04743839870893858 -0.7449104757057331 0.40203439904852584 -0.2067405094273654 0.45675579275887945 0.07073294319342431
 -0.024273026236810803 0.5905055810904547 0.4565217412734344 0.07525900704134159 0.611119744864308 -0.16980044988052256
253875000.0 0.00978397505223651 0.2521228484220377 0.043498041122295404 -0.7447925152345509 -0.019734466380435408 0.5907924468429825
 0.04665648669091264 -0.7446589666841297 0.4024292580482302 -0.20724571140194514 0.4567992175691158 0.069904224782063
 -0.02372090786850136 0.5909266525377294 0.4565884958591685 0.07442939654781328 0.6105679138904547 -0.17082152738547457
254000000.0 0.010260649110457038 0.2520214146739118 0.042742376065038806 -0.7445297418744473 -0.019222228958390826 0.5912146498722652
 0.04587931069558647 -0.7443996882006673 0.4027641742047897 -0.20777128960206112 0.45685981962215544 0.06908488748497102
 -0.023167103591709242 0.5913617153678821 0.4566414314437549 0.07362657086546574 0.6099561494500404 -0.17183139833032152
254125000.0 0.010723803436395438 0.25191271675850413 0.04195121882844913 -0.7442896677161323 -0.01867255132374378 0.5916379423069714
 0.04512835717844812 -0.7441377533948585 0.40314746334055873 -0.2083387724231549 0.45690158992001817 0.06829058675723657
 -0.02264317488169985 0.5917788481023556 0.4566775687545856 0.07282644706434341 0.6093909949320928 -0.17284422676778097
254250000.0 0.011187980769093381 0.25183011408157374 0.04116857545352037 -0.7440263918215603 -0.01811947489908347 0.5920644102007181
 0.04434338512640131 -0.7438944674828978 0.4035054142589614 -0.20889083613575965 0.4569521140219984 0.06746301590570704
 -0.022086708130514932 0.5921872609527862 0.456729351490082 0.0720132080152132 0.6087963995551218 -0.17386445865127304
254375000.0 0.011649097267621757 0.25172233221380497 0.04041831860535411 -0.7437728921133204 -0.0175875721416872 0.5924793778326178
 0.043566073479737726 -0.7436646806858056 0.4038586051504077 -0.20944189624470902 0.45698601048782067 0.06666146000993008
 -0.021541039620706505 0.5926303788262461 0.4568092341698147 0.07119914609530911 0.6081662225484032 -0.17484749084148382
254500000.0 0.012097010005103829 0.2516226562419412 0.039627749035095694 -0.7435269732804166 -0.01702809728794669 0.5929033691957325
 0.042807418291299956 -0.7434080577909488 0.40421906632890164 -0.20998637273935405 0.45703448105056826 0.06583328794252502
 -0.02099654527238611 0.5930482538930149 0.45687156764792286 0.0703981268581947 0.6075657091283275 -0.17586090280174813
254625000.0 0.012560141257870907 0.2515173132084237 0.03886947477929376 -0.7432503680953814 -0.016496069490507484 0.5933046796047703
 0.0420186294556018 -0.7431428045843053 0.4046105045803345 -0.21053807106864555 0.4570761268856946 0.0650348382758446
 -0.020444475094633218 0.5934752076822879 0.4569076545357344 0.06958608979851963 0.6069891255113858 -0.17689299463245742
254750000.0 0.013032038672540176 0.2514219195278387 0.03808577862469944 -0.7429813071893537 -0.015940936970760343 0.593711292205725
 0.041263411479840396 -0.7428736291225204 0.40494395509921866 -0.21107383941848704 0.457109894043314 0.06421214073615863
 -0.0199052253136677 0.5938821683388112 0.4569407938733863 0.06878741252717967 0.6063820566400779 -0.17787960523757052
254875000.0 0.013503075405202122 0.25131611534593296 0.037340751809185606 -0.7427263018803966 -0.015398424940756711 0.5941359601304675
 0.04050494572330994 -0.7426023915691351 0.4053176601541185 -0.2116296514344506 0.4571442274020925 0.06340309186437672
 -0.01935643058614868 0.594292598412633 0.45699657126864884 0.06799425056360307 0.6057684542162198 -0.1788604082979912
255000000.0 0.013966343808118379 0.25122272919518995 0.0365596164938452 -0.7424696261439506 -0.014844560173978527 0.5945522263519945
 0.03973108476724185 -0.7423502553651832 0.4056599156347973 -0.21217319598775278 0.457183044163557 0.06259773352732778
 -0.01881179294166884 0.594708574551456 0.45703100973224203 0.06717186420709348 0.6051778331970165 -0.17983390123654705
255125000.0 0.014407421991709423 0.25109191543317394 0.03578655339091171 -0.7421908338808786 -0.014289249783122626 0.5949606356919833
 0.03896201831193342 -0.7420941436240172 0.4060262565982986 -0.2127367705429373 0.4572127312931352 0.06178220281303275
 -0.01824530431437424 0.5951406732320471 0.4570780716923091 0.06636231639735886 0.6045597400085884 -0.1808405981517645
255250000.0 0.01486034727981959 0.25102040458690295 0.03502974227552022 -0.7419075713074903 -0.013750603757001106 0.5953690310695371
 0.03818379610118167 -0.7418128165121614 0.40639142167554926 -0.2132619770714677 0.4572450090898483 0.060983959891179586
 -0.017700756687211078 0.5955504943579956 0.4571164765610321 0.0655420989145194 0.6039847583756623 -0.1818083505654429
255375000.0 0.015322177254175201 0.2508787576614323 0.03430408100736187 -0.7416678328268277 -0.013224846521154002 0.5957901334037458
 0.03742263655528999 -0.7415531254203963 0.4067359740793433 -0.21382991292245745 0.45727549022380437 0.06019662165803538
 -0.01715157899783564 0.5959761216659291 0.45716099175579766 0.06475160021106828 0.6033726197785886 -0.18277305799131185
255500000.0 0.01578474063122114 0.25078125079761276 0.03351606331051642 -0.7414006800573094 -0.012650116793472284 0.5961964163306043
 0.03666024280828091 -0.7412714229691597 0.4070865520676552 -0.21437029400976687 0.45730624105786294 0.059377828123109766
 -0.01659817551520346 0.5963759635142645 0.4571884874790059 0.06394746807956504 0.6027696580332459 -0.18373027552409849
255625000.0 0.016234971618094462 0.2507008386247872 0.03272709605207558 -0.7411356911162136 -0.01208502248537362 0.5966106572453626
 0.03590278878696299 -0.7410226085454242 0.40742981268242917 -0.21493767325763663 0.45733204541628136 0.05855003403403906
 -0.016047111131987712 0.5967951363483264 0.4572202925189352 0.06315769886681999 0.6021461911328895 -0.18476073005051954
255750000.0 0.01669225792146117 0.25058239040190283 0.03198105829045043 -0.7408863663105412 -0.011557479189261054 0.5970376242660218
 0.03516276865939858 -0.7407580343717117 0.4077698079549701 -0.21551489948914873 0.45737051281125296 0.05776359563365879
 -0.015494852234166134 0.5972048209839013 0.45725312040378757 0.06235153141729277 0.6015315775867918 -0.18570300434630227
255875000.0 0.017181768617707698 0.25046724851334007 0.031205939453704565 -0.7406043760387042 -0.011003277014802386 0.5974355299105529
 0.03438286589615244 -0.7404678078366611 0.40812001726805985 -0.2160773289925826 0.45738146246625044 0.05695019728798598
 -0.014946340625716485 0.5976234708264173 0.4572738288571098 0.061556262172571506 0.6009079562362293 -0.18668286785823168
256000000.0 0.017622268748463725 0.2503422579992463 0.030437871382743967 -0.7403224750549131 -0.010446252179431759 0.5978439061786847
 0.03361323890523626 -0.7402318293187058 0.4084642647804506 -0.2166115888326218 0.4574077298738414 0.056143761146298043
 -0.014399234042296183 0.598040667782746 0.4573185408570936 0.06074616531661972 0.6003337269502831 -0.18762527339637014
256125000.0 0.018071145755920816 0.25025318697804944 0.029685628461294748 -0.7400508995088236 -0.009902706001388555 0.5982493713853085
 0.03289039611211486 -0.7399524310546995 0.40882926461684155 -0.2171694842742839 0.4574169029089815 0.05533750588936644
 -0.013851995940344194 0.5984307010959942 0.457335800510389 0.05994539511608164 0.5997069120952281 -0.18860353154377538
256250000.0 0.018509892638317184 0.25013248395177073 0.02888648594357926 -0.7397772651048783 -0.009330342544618743 0.598654943146907
 0.032091305287837636 -0.7396932703957072 0.4091851697210263 -0.2177203426455748 0.4574097754375572 0.05452907659866449
 -0.013281692831924399 0.5988743996379087 0.4573825774170807 0.059128811657202886 0.5990923426309676 -0.18953863509607924
256375000.0 0.01895045743449718 0.25003328952880727 0.028164528424751215 -0.7394919972642288 -0.00877877900254734 0.5990457884733469
 0.0313425395420489 -0.739416336189004 0.40952274513494835 -0.21827527134716945 0.4574333142704531 0.05372770065842322
 -0.01271506953933095 0.5992628844239769 0.45740221812805815 0.05831737488699853 0.5984772727900386 -0.19051601511493835
256500000.0 0.019408250385453227 0.2499009086647436 0.027391212411566373 -0.7392210389808678 -0.008237844262430575 0.5994683776214546
 0.030588097766647976 -0.7391391218636462 0.409844493812656 -0.21883848201191816 0.45746263928748543 0.05292622235957225
