!Created with skrf (http://scikit-rf.org).
# Hz S RI R 50.0 
!freq ReS11 ImS11 ReS12 ImS12 ReS13 ImS13
! ReS21 ImS21 ReS22 ImS22 ReS23 ImS23
! ReS31 ImS31 ReS32 ImS32 ReS33 ImS33
!
250000000.0 0.23223599281092974 0.22008669380644302 0.25646073671710656 0.46918490431711807 -0.24872819751155137 -0.723640141480532
 0.2523932594181326 0.4714030308129029 0.25041914956288025 -0.7276743764613816 0.24656195975054498 -0.24333066773774537
 -0.24460420854479717 -0.7248634750926477 0.25000577641495575 -0.2406161937718329 0.23006981627282388 -0.4695832882789655
250125000.0 0.23261609385304596 0.21993303398100972 0.2569261376159711 0.4694387447093778 -0.24942295796790465 -0.7231316293202408
 0.2527572677627491 0.47161615260339296 0.2498693373599124 -0.7276962871782444 0.24624632133825142 -0.24372717944098032
 -0.24525119751762667 -0.7242635297590624 0.24969196790089868 -0.2409195048043587 0.2297635662981866 -0.4703664655258273
250250000.0 0.23303988074698706 0.21975454063149824 0.2573390616609277 0.46967596911188075 -0.25008793794609124 -0.7225749907357792
 0.25315463176692726 0.4718652494194335 0.24940121414051078 -0.7276639117001918 0.24592861162576624 -0.24403988645975105
 -0.24588272872880768 -0.7236995241660564 0.2493928199602171 -0.2412430143818037 0.2294750096535837 -0.4710846404089832
250375000.0 0.2334125058686568 0.21957153336543955 0.25774013957010977 0.46990652392594584 -0.2507162459131134 -0.722016209597519
 0.25354561102971995 0.4721098039229322 0.24887852738743926 -0.7275295810794329 0.2456263520558109 -0.2443595656995322
 -0.24650373050847293 -0.7231354698193259 0.24911279873254452 -0.24154301003643744 0.2291953788206215 -0.4717796445123873
250500000.0 0.233780812991599 0.21938248898152865 0.25814852147200523 0.4701136235723993 -0.25135084270635066 -0.7214450367698132
 0.25392992052654056 0.47232178694859167 0.24829878308883446 -0.7274298831887817 0.24531423659583038 -0.24466419648857987
 -0.24715438040328172 -0.7225775821578128 0.248821882237656 -0.2418479405785262 0.2288874379574362 -0.4724633290532086
250625000.0 0.23418864815522378 0.21921174368890736 0.25853453432796164 0.4703503962051058 -0.2519879490423193 -0.7208659146907855
 0.25431210677271676 0.47255022697127735 0.24778253840625175 -0.7273561636117574 0.24502091924485314 -0.24496661564528724
 -0.24778727681958446 -0.7220224148235025 0.24851952242794242 -0.24214698053066852 0.22862388164084715 -0.4731813813093134
250750000.0 0.23457209075864358 0.21907382223878286 0.2589164951108489 0.4705684998272293 -0.2526088626856507 -0.72028957529964
 0.25471333668472407 0.47277714826784645 0.24729125255123166 -0.7272672288621025 0.244713428901242 -0.24525808486713263
 -0.24843453792221762 -0.721446136544224 0.24821499476334882 -0.24245137731072539 0.2283427743515451 -0.47388736921227825
250875000.0 0.23495971595099047 0.21887275698711667 0.2593057766106953 0.4707834983723342 -0.25324499424048585 -0.7197245843852444
 0.25509102066218114 0.4729992542600894 0.24674584343252393 -0.7271308954128239 0.24440698158445806 -0.24554872497331612
 -0.24905928795651577 -0.7208791199907983 0.2479226719341506 -0.24275104604567105 0.22802477987156744 -0.47453080253306196
251000000.0 0.2353171323494524 0.2186973769033317 0.25970377585375054 0.471006226303065 -0.2539044142741589 -0.7191344697536449
 0.2554806314469999 0.4732148181321635 0.24626160698330243 -0.7270377301651042 0.2440930785274741 -0.2458592254359861
 -0.2496551323753428 -0.7202814926806707 0.24762067913290203 -0.24304189059852266 0.22773705164753327 -0.4752630898123088
251125000.0 0.23570394363157848 0.2185369802420495 0.2600839381125855 0.47122216573045367 -0.25449495123262716 -0.718560871050961
 0.25588808817770514 0.47344094484953136 0.24570883947738645 -0.7268946467446269 0.24379251662449442 -0.24615138125767408
 -0.2503256797185677 -0.7197489308639028 0.24731457529636353 -0.2433424157938738 0.22742989518691686 -0.475935232003726
251250000.0 0.23610042991235128 0.21833553723500532 0.2604755445941675 0.47144735146403227 -0.25510523453124334 -0.7179947343402185
 0.256269045904318 0.4736621015981269 0.2451935730594406 -0.7268649705793041 0.24349891736629434 -0.24643512732303322
 -0.25092472589553666 -0.7191671180903281 0.24702313919391536 -0.24362867137053013 0.22714015783029284 -0.47663295824239243
251375000.0 0.23644239605128214 0.2181719565356537 0.2608787795288617 0.4716644026598508 -0.25575389697944123 -0.7173950903826981
 0.25667608224485067 0.4739024716164265 0.24466231465081875 -0.726740028684172 0.243179698086108 -0.24671659559245498
 -0.2515536090446838 -0.7186048689308214 0.24671951124942218 -0.2439348801739756 0.22684329648784546 -0.4773257776729571
251500000.0 0.2368513660983508 0.21799775086299078 0.261272276408897 0.47186927168526993 -0.2564051490599988 -0.7168350575202893
 0.2570602423688494 0.47410761018918834 0.24412600450298622 -0.7266129708883768 0.24287203140106609 -0.2470256083768487
 -0.2521803194084584 -0.7180128232950611 0.24640803707176845 -0.24422414212861304 0.22653733814810353 -0.47799844728705226
251625000.0 0.2372379552797182 0.2178055744305872 0.26165602266436694 0.4721074192137077 -0.2570020174365175 -0.7162628649733761
 0.25743461831208414 0.4743443319997293 0.2436279092355171 -0.7264687350560967 0.2425637163345824 -0.2473086829387683
 -0.2528053717060187 -0.7174485553606995 0.2461069010040798 -0.24450959198055103 0.22622487077232434 -0.4786529195231764
251750000.0 0.23762306218045712 0.2176569392569835 0.2620553177415605 0.47232679023583524 -0.25762171008060586 -0.7156954293808471
 0.25783383721914627 0.47455713754312917 0.24309493318893227 -0.726356453060579 0.24225358199281855 -0.2475936965116659
 -0.2534274461579741 -0.7168687651393956 0.24580422718735048 -0.24480824773810253 0.2259075087862006 -0.47933050153535034
251875000.0 0.237997345940641 0.2174650263643845 0.26244126308487026 0.4725435702391266 -0.2582461946056818 -0.7151132194694979
 0.25821893039696425 0.4747805248834084 0.24261040453502758 -0.7262659748423823 0.24194609613764348 -0.24788808715596414
 -0.2540510428117687 -0.7163182283895994 0.2454923084900006 -0.24510560303901696 0.22561905790984996 -0.480027514239384
252000000.0 0.23836849953203484 0.21729260542332113 0.2628268099035085 0.4727583569907325 -0.25886380239256485 -0.7145375188240443
 0.25863229889865225 0.4750005233275544 0.2420964896613431 -0.7261454154311527 0.24164555132894186 -0.24816742671947295
 -0.2546846795997541 -0.715726122715812 0.2451882281999029 -0.24540218706894573 0.22532790853628965 -0.48070507339687685
252125000.0 0.23874074007859253 0.2171224469259941 0.2632306735594703 0.4729856140669358 -0.25948467527518665 -0.7139565303374502
 0.25902412808459796 0.4752107251916813 0.24154961531445007 -0.7260564920639828 0.24133118308050192 -0.24846218683670868
 -0.25530926859523606 -0.7151530767707565 0.24488523445380014 -0.24569759384090833 0.2249955645644102 -0.48141209808612995
252250000.0 0.23912949011434934 0.21692049566222735 0.26362592958392 0.47319308527369797 -0.2601168132759238 -0.7133621038661676
 0.2594050638737396 0.4754398828011687 0.24105962805675704 -0.7259079215044101 0.24101033379694084 -0.24874716551966683
 -0.2558993140940065 -0.714582459188379 0.24458523916670766 -0.245978870369209 0.22469478765540535 -0.48207210010033646
252375000.0 0.2395001660921181 0.2167293998971862 0.2640188798492401 0.4734152349293654 -0.2607477270073055 -0.7127795484810935
 0.25980961622851334 0.4756470731891634 0.24051886706321127 -0.7257856854213225 0.2406935733278401 -0.24904359662618475
 -0.2565184122675151 -0.7140149844686179 0.24429273033923005 -0.2462693395877835 0.22436281537868624 -0.482783405628274
252500000.0 0.23987578513213353 0.2165590489390696 0.2644178108556232 0.4736408099715051 -0.2613498534372261 -0.7122015100296302
 0.26020017613791124 0.47586876641216 0.23998832098962877 -0.7256873564368709 0.2403953248769951 -0.24933083011636897
 -0.25713340555157205 -0.7134251236687467 0.2439742656694919 -0.24656619537391478 0.2240630428443123 -0.4834585232133558
252625000.0 0.2402500749797604 0.21638320260808538 0.2648001059539836 0.4738346121534775 -0.2619669670297547 -0.711591385484102
 0.2606015937097985 0.476086747896871 0.23948072028936904 -0.7255797167541985 0.24007995209247487 -0.24960650407520793
 -0.2577472609254409 -0.7128397018658874 0.24365449709144077 -0.24685460355915864 0.22375338319000637 -0.48414868300710273
252750000.0 0.24061014145579548 0.21622344918360253 0.26519223332302205 0.4740537607160577 -0.2625553107041917 -0.711015758192517
 0.2610103235554451 0.4763105562823595 0.23894306008351376 -0.7254715320658658 0.23977592534667067 -0.24989001143122747
 -0.2583718492618845 -0.7122714111310362 0.24334187092809048 -0.24715187020401524 0.22346103789873425 -0.48482034614203073
252875000.0 0.24104851896591606 0.21596229151826749 0.26559506286752627 0.4742822238079718 -0.26318311168777153 -0.7104244663240104
 0.26140803141373564 0.4765524779187036 0.23843134860941279 -0.7253343173705598 0.23945602896564927 -0.2501797694315724
 -0.2589711926740079 -0.7117134971680121 0.24306496981792008 -0.24742581116421777 0.22311947109343233 -0.48549970467960296
253000000.0 0.24140121627543032 0.21580623941063784 0.26599197436462463 0.47450061593126963 -0.2637732490075486 -0.7098548163643501
 0.2617907102479611 0.476758429120636 0.2379073458352235 -0.7252808520561932 0.23914855568912302 -0.2504573907661021
 -0.2595616899060844 -0.7111144031801724 0.24273823613248405 -0.24771726145685105 0.22280072381587154 -0.48621042101377004
253125000.0 0.24175312253208925 0.21561685934800215 0.26636948670362687 0.47471498538634666 -0.26440343915507214 -0.7092853356761628
 0.2621947936361239 0.47695859227347837 0.23740992423510165 -0.7251725689909383 0.23884823489601184 -0.25075057441933535
 -0.2601853631079488 -0.7104976966988681 0.24242637589954982 -0.24800111652290263 0.2225006070527524 -0.4869308667930124
253250000.0 0.24211618545343938 0.21545691800130246 0.2667742580695321 0.47494434567630267 -0.26500446252277493 -0.7087165429176084
 0.2625808297802439 0.4771812585183629 0.23688362244141062 -0.725069719051245 0.23854069424960261 -0.2510269597033444
 -0.26081543780841765 -0.7099537201948599 0.24212230119295422 -0.2482845255992667 0.22218469483317577 -0.4875931240525282
253375000.0 0.24250547361944022 0.2152379007466397 0.26718170101678995 0.4751288564536949 -0.2656041289937869 -0.7080989107555222
 0.262979749112264 0.4773888840326464 0.2363398313365542 -0.7248939099641852 0.23821281773570108 -0.25130422264987573
 -0.2614046046764139 -0.7093437061471703 0.24181087935648887 -0.24856837672238047 0.22187020090427362 -0.48827015996850176
253500000.0 0.24287690349101348 0.21506095847323808 0.26758113685159546 0.47537080168837137 -0.26621323572034133 -0.7075244283190669
 0.26337391231198415 0.4776245467575704 0.2358516009483264 -0.7247973468687117 0.2378996746069417 -0.25159294884126543
 -0.2620046276681032 -0.708793723589292 0.2414983671027252 -0.24885266064870015 0.2215481195862598 -0.48895681278369274
253625000.0 0.2432459551689192 0.21489730172398178 0.26796659509416965 0.47558742181225777 -0.2668128264301118 -0.7069294517394553
 0.2637682027129197 0.4778264149370427 0.23534394874075346 -0.724655249305162 0.23758871940283938 -0.2518755696868973
 -0.26259796095400395 -0.7081894049688937 0.2411818497248616 -0.24913686590581027 0.22120994104621886 -0.4896384552026481
253750000.0 0.24363869535717464 0.21468377084688803 0.2683555267409669 0.4758007239578661 -0.2674184629098962 -0.7063575806521737
 0.26420179856115306 0.47805279947084867 0.234805993419091 -0.724553924396462 0.23727717198746928 -0.25216102359065656
 -0.26324299418104713 -0.7076235594815908 0.24086275160503895 -0.24942651397959417 0.22086417965910923 -0.4903400939552015
253875000.0 0.2440051948432289 0.21450479299556627 0.26876874253602395 0.47600076786308915 -0.26803550883150834 -0.7057452678043815
 0.2646056134918164 0.47824907304553355 0.23433464512744168 -0.7244210479976232 0.23695271360805642 -0.2524260275120236
 -0.26385156919369185 -0.7070262506683967 0.24054639726811525 -0.24971420396322047 0.22056792785874982 -0.49100601889689033
254000000.0 0.24437966852953363 0.21430325190137964 0.26915968097597637 0.4762229263212133 -0.2686263358928461 -0.7051529413879296
 0.26500845550328317 0.4784594387136912 0.23379390588818247 -0.7242858324045376 0.23662858272677706 -0.2527051492452812
 -0.26444468707207186 -0.7064537546092395 0.24023182792145853 -0.24999855321757894 0.22022105078699072 -0.4916507426804643
254125000.0 0.24474338703933513 0.2141386013374267 0.26955686200837986 0.476435448459333 -0.26923684503156825 -0.7045822617145394
 0.26538774697404205 0.4786805713137012 0.23330695412571725 -0.7241549050229475 0.23632314574760355 -0.25297834090124566
 -0.26502336986110275 -0.7058534781946741 0.23992240985038576 -0.2502740055778995 0.21992728730455174 -0.492335168972835
254250000.0 0.24512716028158882 0.2139253607696482 0.2699721856293008 0.47663246605237614 -0.269860733015905 -0.7039716364869263
 0.2657922514825616 0.4788781475275337 0.23274805717254568 -0.7240640485659379 0.2360005263329064 -0.2532684260429819
 -0.2656219236822241 -0.7052493432901761 0.23960761486709725 -0.2505485811831378 0.21957381902174664 -0.4930390254195039
254375000.0 0.24548371223317852 0.21374090594776052 0.2703593764351134 0.4768567056099771 -0.2704273005504636 -0.7033797198697579
 0.2662017438196118 0.4791094872724165 0.23222566049179816 -0.72395003305957 0.235694663607646 -0.2535356255698679
 -0.2662468727115245 -0.7046992055628268 0.23930019179545506 -0.2508432862405621 0.21926766774561204 -0.4937226545487178
254500000.0 0.24585040058794375 0.213552738514879 0.27077743458767295 0.4770659912618501 -0.27104385895509464 -0.7027875243759849
 0.26661567200769526 0.479333019367922 0.23170972110590538 -0.7238413727963505 0.23536477473885037 -0.2538178241897333
 -0.2668325081514287 -0.7041072676101428 0.2389820679250294 -0.25112019615479053 0.21892032512966353 -0.49440362547907984
254625000.0 0.24619714033227283 0.21334802293486596 0.27115395502649126 0.4772634169565237 -0.27162313522930437 -0.7021799224882807
 0.26700781091640263 0.4795221552764508 0.2312129994273757 -0.7237169906942438 0.2350506461569583 -0.2540858783230598
 -0.2674309076335739 -0.7035131498964694 0.23866213831491667 -0.251405686450973 0.21857424693005717 -0.4950968655645487
254750000.0 0.2465952098248525 0.213155326303644 0.271568915588059 0.47746808076370295 -0.2722330077544018 -0.7015760593753225
 0.26740055398972434 0.4797224205482085 0.23069014224639983 -0.723584068558638 0.2347239964762784 -0.25435730802462087
 -0.2680182681139452 -0.7029009279673836 0.23834703781924876 -0.25167418830007016 0.21823527356271633 -0.49576299771180005
254875000.0 0.24696121573386656 0.21294415704041825 0.2719619896468173 0.47768433251709896 -0.2728137301419278 -0.7010077434076732
 0.26780110236263543 0.47993844215805587 0.23018637900488764 -0.7234480679944547 0.23442352577133366 -0.25463628816480255
 -0.26860040920353195 -0.7023209823289818 0.23803950339216148 -0.2519537414497014 0.21791648695311241 -0.4964611603333491
255000000.0 0.2473378417709308 0.21274322563184542 0.2723763946907407 0.47789715020929396 -0.27339801979666356 -0.7004279998918819
 0.2682003832372044 0.4801483854615674 0.22966723007545894 -0.7233260826479406 0.2340898518177526 -0.25490553800680954
 -0.26918613989102536 -0.701724627428553 0.23771926915445907 -0.2522282871180816 0.21757331836152866 -0.497105743509157
255125000.0 0.247722894284591 0.2125417558729448 0.27277094111282224 0.4781150576488556 -0.27399802048063887 -0.6998129056808088
 0.2686268306910268 0.48035676721337933 0.22917533739417695 -0.723227495046373 0.23377444058575192 -0.25518044194675016
 -0.2697886156353486 -0.7011467505989981 0.23739847517783694 -0.25251787183982655 0.21723633913516047 -0.4978110555239073
255250000.0 0.2480864098954044 0.21236721052595042 0.27315688865929066 0.47831384950997735 -0.2745611554035095 -0.6992141480366124
 0.26902884537875 0.4805595770765029 0.22866273820323615 -0.7230783007503966 0.23345672548450935 -0.25544823839743913
 -0.27038451823702014 -0.7005316646174774 0.23705795411917027 -0.2527843172527278 0.21690068353158365 -0.4984916365992101
255375000.0 0.24844557777866583 0.21215660760268715 0.27356951198410007 0.47853285590349565 -0.2751380955356276 -0.6986287457489005
 0.26943793111390946 0.48078949126171755 0.22814584231625068 -0.7229398403460946 0.2331444775359109 -0.2557205502235242
 -0.27098667084541733 -0.6999636678987146 0.236765711484171 -0.253078519137074 0.21656213145236078 -0.499170233223014
255500000.0 0.24880686797673793 0.21196709000259698 0.2739778013611945 0.47872361753780457 -0.27575616395598385 -0.6980264907996403
 0.26982009871542206 0.48098572747785157 0.22761968041122513 -0.722801213525921 0.23281462720778026 -0.2559938470558852
 -0.2715515779091907 -0.6993558948724002 0.23643491452455273 -0.25333543014092724 0.2162234888002437 -0.4998346872382087
255625000.0 0.24917842771141832 0.21177820197206254 0.2743944582298389 0.47892379531009815 -0.2763606697530989 -0.6974192458814851
 0.2702273068525096 0.4811982453857802 0.22708651681777953 -0.7226745169103475 0.23248192696276754 -0.2562531277691276
 -0.27213304053742293 -0.6987542936554466 0.23612321054405203 -0.25360747444637677 0.21584780571679135 -0.500502038534192
255750000.0 0.24956367981379116 0.21155217974575377 0.2747925324272542 0.47916475379442713 -0.2769250547996171 -0.6968462770922383
 0.2706424999296465 0.48139991763998125 0.22659561193142067 -0.7225740087619471 0.23216504078457076 -0.25654649321366546
 -0.27271063147180546 -0.6981758065750866 0.2358067411061931 -0.25388184022793636 0.21549132886169875 -0.5012202538488006
255875000.0 0.2499261901483957 0.2113555087752008 0.2751895861982212 0.4793438114543914 -0.27750296076462905 -0.6962242858245441
 0.27103416979322187 0.4816084165741591 0.22606243053688505 -0.7224043667554191 0.23183857558027812 -0.25679808674472465
 -0.2732978185457039 -0.6975618048904946 0.23549219763447604 -0.254147256741815 0.21515484611536173 -0.501860887995614
256000000.0 0.2502844557040178 0.2111508990277485 0.27560588269532976 0.4795436026613523 -0.27809972584458637 -0.6956377796548728
 0.27145922154983443 0.4818112360012379 0.22554753438398564 -0.7222712938779763 0.23150248171344476 -0.25706558905196186
 -0.2738907287320444 -0.69697027128991 0.23517133948783359 -0.2544366533611501 0.2147901659544039 -0.5025245293804843
256125000.0 0.2506518873509662 0.21096386276414472 0.27601664247187935 0.47976432716520756 -0.27868480586745814 -0.6950055374914802
 0.2718470339302989 0.48203172769128233 0.2250585036777879 -0.7221796917004438 0.23118748609393658 -0.25734154595313935
 -0.27445607869551253 -0.6963942503338505 0.23483839562903333 -0.2546972560333016 0.21445572950593378 -0.5032389946557572
256250000.0 0.25102415018890745 0.21075744359927745 0.276414876563373 0.4799378061745395 -0.2792731393833158 -0.6943886520207656
 0.27229984510990024 0.4822287283795674 0.22456475375160267 -0.7220052339435796 0.2308444109544643 -0.25758775956548824
 -0.2750911525344751 -0.6957835972931803 0.23450451845552206 -0.2549851851700346 0.21409893814330713 -0.5038636041805569
256375000.0 0.2513833792051841 0.21055619885892005 0.2768199062623701 0.48014831191051977 -0.2798553850121866 -0.693801511673471
 0.2726986654079691 0.4824367557794262 0.22402958574270967 -0.7218638863180501 0.230522911523058 -0.25786017395771155
 -0.27566371874749 -0.6951883789565232 0.23418384516750937 -0.25525331051874495 0.21374540989431373 -0.5045508147896147
256500000.0 0.2517261473289297 0.21035196947467183 0.277233593546432 0.48037880999662946 -0.28044681547779104 -0.6932332546902523
 0.2730955833378082 0.4826333242582246 0.22357274227495447 -0.7217561715289708 0.2302148307353949 -0.2581410974856491
 -0.2762245489651352 -0.6945772897075416 0.23387349552865627 -0.2555185852888734 0.2134053747438398 -0.5052495982387327
256625000.0 0.2521272319231605 0.21014300259712226 0.27762998028093233 0.480580888511562 -0.28099814342414015 -0.6925942018141849
