!Created with skrf (http://scikit-rf.org).
# Hz S RI R 50.0 
!freq ReS11 ImS11 ReS12 ImS12 ReS13 ImS13
! ReS21 ImS21 ReS22 ImS22 ReS23 ImS23
! ReS31 ImS31 ReS32 ImS32 ReS33 ImS33
!
250000000.0 0.24510297738400796 0.2240634306720542 0.2674810851017955 0.46857165248400995 -0.3009432200590107 -0.6927135362786497
 0.2625698889745846 0.4714124985777738 0.2384623009579628 -0.7283707972272685 0.2316927550702296 -0.25592799605766214
 -0.29581634512425203 -0.6948338623665228 0.23578561589367522 -0.2530290577206683 0.16924608414117367 -0.5075367013407794
250125000.0 0.24549014094469013 0.22385889226787015 0.2679767703118391 0.46884718877625897 -0.30162548815400547 -0.6921592564243032
 0.2629469763922191 0.47163313237060217 0.23787682180501127 -0.7283930275489556 0.2313527421672229 -0.256304600604528
 -0.29640733527304053 -0.6941649508283271 0.23543801363886196 -0.25332224362791134 0.16883592812358791 -0.5082661655563906
250250000.0 0.24589380134029676 0.22361779552968133 0.2684278244837091 0.4690743920815488 -0.30225895586911616 -0.6915017654711167
 0.26338730169149954 0.47186349101805014 0.23738170782676352 -0.7283141579813406 0.2310043844287501 -0.25661123019003224
 -0.2970374686152758 -0.6935449441358496 0.23510129270968938 -0.2536386921677515 0.1684568621828232 -0.5089466371017969
250375000.0 0.2463095576273933 0.22337496355746697 0.26886268996511675 0.4693103354407269 -0.3028637936464201 -0.690876704797035
 0.2638169895303722 0.47209460303260325 0.23684767927314085 -0.7281860648088884 0.2306676892510718 -0.25692793394551083
 -0.29764173376167163 -0.6929501059365353 0.2347862665442046 -0.25393837846726763 0.16806062218509035 -0.5096398558399731
250500000.0 0.24668547784850686 0.22314539412694123 0.2692932909452202 0.46952512035522176 -0.3034746213543129 -0.6902287640057786
 0.26423391859716583 0.4723369335093679 0.2362465679134094 -0.7280852241801623 0.23031791358561446 -0.25722272842984023
 -0.2982359082270293 -0.692306251332014 0.23445806638117714 -0.2542262516465407 0.16763063704326006 -0.5102755315313576
250625000.0 0.24711207802688187 0.22293728559835418 0.2697022819122002 0.46975673505520826 -0.3040717989123646 -0.6896057513578616
 0.2646491644305358 0.47255057252267285 0.23572761270976697 -0.72796924523807 0.22999030021780736 -0.25751893980896634
 -0.2988462379354131 -0.6916761927732406 0.23412386818987418 -0.2545137175364528 0.1672433028445747 -0.5109502445105522
250750000.0 0.2474915486032711 0.22271863530563274 0.27013515481220063 0.4699648505479664 -0.30468147875261253 -0.6889393796416222
 0.2650714754655942 0.47277022998699153 0.23519283343606917 -0.7278729288984654 0.22964972603390657 -0.257793174301478
 -0.2994414652172743 -0.6910335621110256 0.23379219547884536 -0.2548158325033021 0.1668585587044487 -0.5115968034231307
250875000.0 0.24789343923793403 0.2224841265351416 0.2705692662072902 0.4701876979670673 -0.3052832651654701 -0.6882999892472074
 0.26549248188869123 0.47300372130191176 0.23460889773331045 -0.727736890557174 0.22930126427094985 -0.25808742489886033
 -0.30004401014416443 -0.6903920004139201 0.23345237835591104 -0.2551128470762577 0.16642142082160238 -0.5122356661144574
251000000.0 0.24826480071044876 0.22224287544640825 0.271001737711325 0.4703974312943331 -0.3058884072697553 -0.6876540742744278
 0.2659078163658548 0.4732194205942049 0.23410416210469698 -0.7276238490192996 0.22894901588637873 -0.2583754607873293
 -0.30064126264068197 -0.6897618628869387 0.23312040163191525 -0.2553930727944616 0.16601136967266159 -0.5128948551046952
251125000.0 0.24864251049906277 0.2220331811949351 0.2714015043474284 0.47062374436360843 -0.3064754686981311 -0.6870392519202244
 0.2663475190977392 0.4734395257788745 0.23354053846296347 -0.7274643128198182 0.22862896860516732 -0.25866050177897715
 -0.3012623139351617 -0.689130799355979 0.23278537312022793 -0.2556955088048122 0.16563128201381777 -0.5135236936215061
251250000.0 0.24906184476283855 0.22181318225421598 0.2718324686112156 0.4708405132762282 -0.30705453733399296 -0.6863671183346913
 0.2667456088248126 0.47367984028194526 0.23299166897399648 -0.7273882467780353 0.22829296166893137 -0.25894824071795397
 -0.3018322105149351 -0.6884995025944519 0.23245427665623844 -0.25598176165782466 0.16521799619273891 -0.5142200220988168
251375000.0 0.24941813280061723 0.22157386589491937 0.2722551109252641 0.4710425475903347 -0.30764798762706186 -0.68569910069666
 0.2671896912422619 0.47390268391207874 0.2324541860589807 -0.7272509971172514 0.22795144289941244 -0.2592222840780158
 -0.302439217291828 -0.6878556590400922 0.2321214403672927 -0.25628931186264203 0.1648185975327222 -0.5148585734488281
251500000.0 0.2498341516807488 0.221342191201292 0.2726882088358836 0.47126225036643277 -0.3082485803668384 -0.6850825643040458
 0.267607658722124 0.4741067216291776 0.2318964704458299 -0.7271233588397746 0.2275959279864659 -0.2595221412427305
 -0.3030367589559686 -0.6872011672407884 0.231784999374398 -0.2565673934895867 0.1643821379558089 -0.515530240624173
251625000.0 0.25024425718781795 0.2211004614355356 0.27309570770497005 0.4714966435581849 -0.30884011240006704 -0.684439883666321
 0.2680221437404149 0.4743344498930469 0.23138372576091432 -0.7269571143200912 0.22726654285927997 -0.25980170896019267
 -0.30358410161074656 -0.6865544590096906 0.23145588117897883 -0.25684499109675 0.16400935936256658 -0.5161547479790011
251750000.0 0.2506273332990826 0.22087731252230322 0.2735153710824225 0.4717107622272227 -0.30943053543504256 -0.6837963405508497
 0.2684549684558134 0.47455126812677606 0.23084467107291404 -0.7268164655296143 0.2269175415093876 -0.2600868541687491
 -0.3041982119249798 -0.6859074328069066 0.2311122284031468 -0.25712997576940355 0.1635693543611103 -0.5168020180865829
251875000.0 0.2510175237400858 0.22064515308348875 0.2739532874985697 0.4719257300457879 -0.31003129146686387 -0.6831527905599504
 0.26889132911126584 0.4747738206170465 0.2303005826477408 -0.7266988965130698 0.2265742844720874 -0.26036991875967147
 -0.3048118535765089 -0.6852740876879257 0.23077616933264228 -0.2574285492197357 0.16316379954146973 -0.517471001209069
252000000.0 0.2514002409461618 0.22042644779937173 0.27438998884453675 0.47214155952834674 -0.31061508057770254 -0.6824915533717458
 0.2693377417158239 0.47498309524148635 0.2297297282163977 -0.7265923555306396 0.22623143881361474 -0.26063547284597033
 -0.3053999932780147 -0.6846278193655073 0.23043062776822865 -0.25771427364802296 0.16275819545639708 -0.5180955832318379
252125000.0 0.25178689990126646 0.22018659007403388 0.2748157896798368 0.4723635965300622 -0.31118933679388877 -0.6818247382743129
 0.26977967841984646 0.4752009675074708 0.22917946315486679 -0.7264649661641617 0.22589352403539306 -0.2609303142830544
 -0.3059988507787173 -0.6839806152169625 0.23008683197859003 -0.25799555215946235 0.1623464217789233 -0.5187614452296039
252250000.0 0.2521643828232529 0.21994741900830178 0.27524955768015036 0.4725722271037384 -0.3117962022298554 -0.6811727202065361
 0.2701867565297729 0.4754245588427606 0.22865546806798406 -0.7263227198751947 0.22554018766437534 -0.2611981784930216
 -0.30657158135470935 -0.6833466242579507 0.22975856121314367 -0.2582720363038526 0.16191083235623158 -0.5193791352384255
252375000.0 0.25255627220071636 0.21969601366808014 0.2756762460647005 0.472788887456413 -0.31239555115803014 -0.6805265752708249
 0.27062727247360885 0.47564578649415035 0.22810970389771534 -0.7261769908199066 0.22519710541160082 -0.26148454071610033
 -0.30714408322101866 -0.6826867122842989 0.22942937788744786 -0.2585601681273812 0.16149198550290556 -0.520038719986722
252500000.0 0.25293757604532924 0.21948997349117602 0.2761084226070677 0.473008295835893 -0.31296548175798283 -0.6798725026118363
 0.2710471463746595 0.4758642033229624 0.22754106735010388 -0.7260511006114222 0.22485692532265286 -0.2617696253606365
 -0.30772879772775574 -0.6820677176702193 0.22908596861930716 -0.25885311547955897 0.16106465335205108 -0.5207028534918522
252625000.0 0.25335253851148826 0.21925814644775424 0.2765370718804741 0.4732129405300061 -0.31356090603748427 -0.6792009855596888
 0.27147754411250696 0.4760929617106099 0.2270146309528193 -0.725958219275729 0.22451856010547663 -0.26203097299277694
 -0.3083311938942278 -0.681408267104266 0.2287278627059076 -0.25912834193674333 0.16067182675100217 -0.5213418731042314
252750000.0 0.2537014193158416 0.2190358356408813 0.2769487319281575 0.47342757306743516 -0.3141284304613081 -0.6785690017341236
 0.2719277360352238 0.4762878006605184 0.2264836866066342 -0.7257952062048626 0.2241760933284017 -0.2623075673059374
 -0.30891835460238753 -0.6807734160044572 0.2283835048370523 -0.25941498877510666 0.16023869757426099 -0.5219700481228988
252875000.0 0.25411241262946654 0.21875516674174106 0.2774004939416167 0.4736348619966724 -0.3147167169419257 -0.6779083024278282
 0.272335936735643 0.47652747668507744 0.22590120239500164 -0.7256519892919578 0.22381976910057325 -0.26259061626953845
 -0.30947601717035705 -0.6801521031629252 0.22807635863159043 -0.259689845358465 0.15978062404971138 -0.5226282810409005
253000000.0 0.2544776997633563 0.21854705810664615 0.27781829006073905 0.47385631142222756 -0.3152895681760887 -0.6772564065323016
 0.27275237711429545 0.4767268689319058 0.2253789669003483 -0.7255602758734614 0.2234826186411443 -0.2628626911741156
 -0.31004129956166593 -0.6794834271050596 0.2277195235234393 -0.25996534572650404 0.15937335115566792 -0.5232922003903125
253125000.0 0.25485203062527323 0.21830711528747587 0.2782536955655443 0.4740828882100525 -0.3158616371324397 -0.6766170255098624
 0.2731853123012895 0.47692806345672684 0.22485224579825536 -0.7254699859566753 0.22314395250055383 -0.26313965620128577
 -0.3106315243777821 -0.6788158011148292 0.22737347967147897 -0.26023833542797953 0.15894533537366667 -0.5239417939441351
253250000.0 0.25523109211245243 0.21805342739319913 0.2786797954585164 0.47429922656716783 -0.3164458888410443 -0.6759679222981935
 0.2736324258620166 0.4771414479193123 0.22433384004465703 -0.725320765428587 0.22279757051764965 -0.26340994741755286
 -0.31121500332761787 -0.6781782241530985 0.22702656651379702 -0.26052846598344587 0.15852843724059731 -0.5245652646550284
253375000.0 0.2556376837861752 0.2178247221845854 0.2791031233261853 0.4744783383789041 -0.31700629654881446 -0.6752898880572317
 0.27405760633232457 0.4773643545173399 0.22376121537641525 -0.7251310996950978 0.22244167247338775 -0.26367427223371803
 -0.31177881637642374 -0.6775246664968122 0.22669484931875175 -0.2608055614104385 0.15808425007896548 -0.52519270312258
253500000.0 0.2560162638628124 0.21758944689605222 0.27954829129343733 0.4747130148738917 -0.317607726755241 -0.6746608449428237
 0.2744921061818841 0.47759424512367105 0.2232382652044721 -0.724997601130413 0.22208637599510003 -0.26395427283747014
 -0.3123519383600575 -0.6768861382570536 0.22634883336148087 -0.26107765617960205 0.15764061796413514 -0.5258468834702903
253625000.0 0.2563839778370163 0.21735754452386138 0.27996056971818334 0.4749177464572722 -0.31815844871037957 -0.6739861450522449
 0.2749148762880867 0.4777917715879325 0.22269597309795833 -0.7248193140723708 0.22175192367179739 -0.2642198538370911
 -0.3129161543995458 -0.6762239657469757 0.22599843858504523 -0.2613540451091753 0.15722975228614827 -0.5264777790974489
253750000.0 0.256774724865026 0.2171037277534112 0.2803974123040611 0.4751442587172243 -0.3187317066583945 -0.6733506492839808
 0.2753678701830584 0.4780035808007638 0.22216698045950467 -0.7247448891590764 0.22140130780075307 -0.26450621537527674
 -0.3135289050802954 -0.6756064616817663 0.22564990501718502 -0.2616362838818927 0.15676373853782757 -0.5271545515801226
253875000.0 0.2571548802404481 0.2168949363262786 0.28083255410169833 0.47533497043845235 -0.3193135741478162 -0.6726717061547401
 0.27580631075280615 0.4782058793415342 0.2216849977374313 -0.7245636187669533 0.22103948422023 -0.2647620126153462
 -0.3140871376270706 -0.6749126135833738 0.22529612318653633 -0.26191539230743227 0.15638336302248604 -0.527777040132242
254000000.0 0.2575348444526839 0.2166432349931319 0.28126960180634036 0.47554749963363346 -0.31985567417585825 -0.6720204169095725
 0.2762300420267897 0.4784235413657482 0.2211095133707796 -0.72441765688799 0.22068902181458366 -0.265024254469358
 -0.3146535066425305 -0.6742589103959042 0.2249580960519982 -0.26218898831659115 0.15591670409603772 -0.5283815204450225
254125000.0 0.2578998773214547 0.21639301223413152 0.2817158509957466 0.47576869462200344 -0.3204469881134887 -0.6713520935818658
 0.27664721432210776 0.47861618822265234 0.2206158476279206 -0.7243055166226924 0.22035320762743552 -0.2652940477076207
 -0.31521294787858145 -0.6736141707232434 0.22461412261394084 -0.26245371769912357 0.15550261033437165 -0.529035135662133
254250000.0 0.2582879104234317 0.2161561853924629 0.2821456609701261 0.47595689778519373 -0.32102293689030176 -0.6706841828620966
 0.2770851750853434 0.4788331170437632 0.22005004459825483 -0.7241513966879278 0.21999029287105248 -0.26556818499127266
 -0.3157665583267057 -0.672949077876681 0.2242679694730026 -0.26272476821413276 0.1550554067769683 -0.5296851379469363
254375000.0 0.2586661252814124 0.21592660085564164 0.28258305016650737 0.4761742959748048 -0.32157599551571436 -0.6700293097869542
 0.2775368375753362 0.4790613378965069 0.21950731926905845 -0.724031955476786 0.2196503587524584 -0.26583013416363915
 -0.3163806090011809 -0.6723044798736724 0.22392461955322396 -0.26300949079563096 0.15461763787169996 -0.5303140689183659
254500000.0 0.25903301190022104 0.21566741138860124 0.2830143728337586 0.47637410981338324 -0.3221540773294255 -0.6693678444948624
 0.2779783512941925 0.47925598985922085 0.21895727278960042 -0.7238984326794226 0.2192886140449811 -0.266099043777583
 -0.3169359750766619 -0.671657456006674 0.2235804885735702 -0.2632778221949767 0.1541599728772371 -0.5309593344228615
254625000.0 0.2594224958007899 0.21541266316316215 0.2834500942395471 0.47657469300506505 -0.3226989407724352 -0.6686965914208478
 0.27841887735924364 0.4794737641410808 0.21842850791578736 -0.7237748224669819 0.2189481515007065 -0.26635879636443727
 -0.3174860592034994 -0.671001819038828 0.22323157318579115 -0.26354451837549225 0.1537305893864706 -0.5316200717148802
254750000.0 0.25980320327757145 0.21516747175583173 0.2838872632830161 0.4767716898871227 -0.32325616193848833 -0.6680275838352624
 0.27884706644172896 0.4796699176279765 0.2178545537203549 -0.7236089821387021 0.21858162818913363 -0.266623831123391
 -0.31805830676370983 -0.670325224283138 0.22288772657749967 -0.2638131957758415 0.1532517887421146 -0.5322285806264351
254875000.0 0.26017325202630864 0.2149252612183286 0.2843107552470399 0.47698595223924367 -0.32380717218645094 -0.6673954819095299
 0.2792665648552841 0.4798828076420019 0.21734090642082257 -0.7234695128706037 0.21824575697658408 -0.26688831425860515
 -0.3185991141850491 -0.6696831558545764 0.22254369935376314 -0.2640811745958264 0.15284068895209368 -0.5328946410846905
255000000.0 0.2605507603690259 0.21468059425154506 0.2847625260245501 0.47719423010097395 -0.3243958505679758 -0.6667154618848781
 0.27969862702490944 0.4800760756314799 0.21681753387223177 -0.723315534821822 0.21788246870524702 -0.2671553815293516
 -0.3191574155483193 -0.6690100735385539 0.2221836441759162 -0.2643556122030056 0.15237242699326858 -0.5335061345119445
255125000.0 0.2609435303860815 0.21441708305089116 0.2852006152524438 0.47739447727214096 -0.3249347046472915 -0.6660463822245899
 0.2801571988198359 0.4802976076418607 0.21627443078325212 -0.7231760035410922 0.2175297935974483 -0.26741842406772487
 -0.3197219887561946 -0.668355540920439 0.2218322854389315 -0.26463194051292543 0.15193077571539382 -0.5341510992985468
255250000.0 0.2613206337525972 0.214176974087943 0.2856256606656826 0.4776014177561682 -0.32549928177436127 -0.6653823246556603
 0.2806022339136983 0.480479428048177 0.21576215130516083 -0.7230611176261403 0.21717717754185442 -0.2676671499601642
 -0.3202909553260577 -0.6676955177016463 0.2214714056985491 -0.26489179704660254 0.1515016044833622 -0.5347780518440634
255375000.0 0.2616786830500379 0.21391956757185882 0.2860519503931894 0.4778203049194339 -0.32603823295274675 -0.6647529185515154
 0.2810454324170568 0.4807071182728303 0.21522341465285424 -0.72287895490783 0.21682895239395344 -0.2679281411279412
 -0.3208549640817302 -0.667040764198746 0.2211325903421173 -0.2651615081679537 0.15104791790841812 -0.5354106601416582
255500000.0 0.2620512913969486 0.21366975312245093 0.28649942292330366 0.4780071598658067 -0.3265944163905203 -0.6640580152829261
 0.2814675344608847 0.4809025476110886 0.21467960353720175 -0.7227225371574236 0.2164644268655395 -0.2681968844757985
 -0.32139158138009766 -0.6663630824703227 0.22077936865879186 -0.265420427794355 0.1505753631878898 -0.5360400855011207
255625000.0 0.2624283662991888 0.213453945846487 0.2869517239793513 0.4781897427686598 -0.32715104230674263 -0.6633823871795199
 0.2819076099628014 0.4811049155629169 0.2141345233893282 -0.7225785252331096 0.21610038961778738 -0.26845739894350357
 -0.3219365797175568 -0.6657182228358599 0.22042638258776592 -0.26568182041166283 0.15011697436007462 -0.5366909689998247
255750000.0 0.26280021739558973 0.21316936683192877 0.28738561503077453 0.47841817451935653 -0.32770998790885836 -0.6627507456354423
 0.28234653175161045 0.4813122166996015 0.21360126478791294 -0.7224254206312398 0.21575450755647452 -0.2687208269910796
 -0.32249211421175 -0.6650850364936289 0.22008192786907235 -0.2659474570950541 0.14966652741550332 -0.5373236249736045
255875000.0 0.26315528884411316 0.21290631741604316 0.2878216166056993 0.4786115766937699 -0.3282423126999348 -0.6620554119246033
 0.28277375824094575 0.48149569163952044 0.21306489124773353 -0.7222727882412097 0.21539401775607123 -0.2689724860746988
 -0.3230372877731209 -0.6643805032173661 0.21974172468026895 -0.2662006218999413 0.14921055091514895 -0.5379338857653708
256000000.0 0.26353453387803216 0.2126713118486109 0.288270117626676 0.47881066807367395 -0.3288116009669968 -0.6613720055090967
 0.28322147792224495 0.48172342622529635 0.21253864404932807 -0.7221256896060143 0.21503129281218938 -0.2692408493362211
 -0.32361009653277906 -0.6637468788836463 0.21938749545056052 -0.26647924288100794 0.14875207473138743 -0.5385940671349868
256125000.0 0.26390645676320507 0.21241820934830835 0.2887081274807772 0.479006790929984 -0.3293503205219414 -0.6607268981142437
 0.2836581293414848 0.4819274281680516 0.21202671997662584 -0.7219731052061478 0.2146889381221182 -0.2694780467846337
 -0.324135406906875 -0.6630698068832672 0.21902487088976627 -0.26673141044118304 0.14832469472092993 -0.5391912727658269
256250000.0 0.2642695367940716 0.21219205676485603 0.2891382652463056 0.4791818108542337 -0.3298847094007549 -0.6600237353155871
 0.28412782995815106 0.48212958528292965 0.2114984931935519 -0.7217834889807577 0.21432237262811651 -0.2697292650290037
 -0.32471450888715625 -0.662421053480235 0.21865737647561864 -0.2670142436592136 0.14785615550691453 -0.5398190659361903
256375000.0 0.2646399922899865 0.21191756546883422 0.2895824611800306 0.47939002478611165 -0.33043961656648696 -0.6593588038992879
 0.2845793366486532 0.48232077226764947 0.21096701413563262 -0.7216425156234366 0.21396191304801807 -0.269989496518382
 -0.32525577422565943 -0.6617475684651505 0.21830100445538234 -0.2672778384769329 0.1473909252205373 -0.540470576586061
256500000.0 0.2650107365027726 0.21165602925071103 0.29003150543726236 0.47961445227959876 -0.3309922508768054 -0.6587177094932899
 0.28500488191254414 0.48253070211774524 0.2104571526541807 -0.7214959563554012 0.21360666678191073 -0.2702570863994707
 -0.32579115585649415 -0.6610818762118792 0.21796137982232502 -0.2675281033325469 0.14691811688304968 -0.5410900244757405
256625000.0 0.2653978949567109 0.21139708313714084 0.2904743282556576 0.4798048770233419 -0.33153326183823073 -0.6580282771015113
