! Created Thu Nov 16 15:10:11 2023
# hz S ma R 50
! 2 Port Network Data from SP1.SP block
! freq  magS11  angS11  magS21  angS21  magS12  angS12  magS22  angS22  
!     
250000000       0.383044365        -10.2850982        0.888499449        -84.1170564        0.892999151        -83.7830355        0.309172033         22.6181719
250500000       0.384372764        -9.07473866        0.884283743         -85.015714        0.889243388        -84.6740754        0.300632237         19.5836584
251000000       0.386959598        -7.74411027        0.878489034         -85.986049        0.883864026        -85.6500444        0.290176965         16.1262836
251500000       0.390886684        -6.22670325         0.87097895        -87.0853726        0.876708343        -86.7534482        0.277506237         11.9817792
252000000       0.396950984        -4.57399441        0.860848431        -88.2943714        0.867110448        -87.9760974        0.262114938         7.04938376
252500000       0.405849175        -2.78802772         0.84730029        -89.6445024        0.854050545        -89.3422076        0.243234362        0.961358443
253000000       0.418676771       -0.939707657        0.828945591        -91.1441322        0.836338843        -90.8706651        0.220210629        -6.92650712
253500000       0.436947555        0.831925087        0.803964614        -92.7711882        0.811952513        -92.5332202         0.19238267        -17.6094196
254000000       0.462173344         2.23367181        0.769674946        -94.3894307        0.778284923        -94.2160296        0.159441222        -33.1058123
254500000       0.495227949         2.93397212        0.723899948         -95.766585        0.733014265        -95.6953054        0.126416343        -58.4040247
255000000       0.535337127         2.48820932        0.665990514        -96.2692077        0.675243248        -96.3489891        0.109858552         -99.390434
255500000       0.578442599        0.627256542        0.600966437        -94.8632687        0.609557565        -95.1777699        0.135061081        -145.026789
256000000       0.617749875        -2.66631827        0.542651923        -90.2505743        0.549307569        -90.8822907        0.194660935        -178.015842
256500000       0.644479498        -6.90823669        0.514148008        -82.5839143        0.517398525        -83.4434666        0.262969657         158.883563
257000000       0.654933454        -11.3356464        0.525568202        -74.6904682        0.525205225        -75.5157172        0.324154404         141.150669
257500000       0.651455323        -15.3288481        0.564614579        -69.2578812        0.561706007        -69.8640384        0.371690492         126.957413
258000000       0.638800305        -18.5910661        0.612701056        -66.5846698        0.608590598        -66.9731314        0.404732995         115.495426
258500000       0.621916096         -21.088482        0.658053243        -65.7357949        0.653457338        -65.9651249        0.426229367         106.227597
259000000       0.604434049        -22.9046729        0.696048414        -65.8655162         0.69144302        -65.9660842        0.439550585         98.7304664
259500000        0.58800035        -24.2101914        0.726699883        -66.4334994         0.72228767        -66.4492494         0.44762815         92.6058327
260000000       0.573101924        -25.1368263        0.751254152        -67.1946705         0.74708652        -67.1450258        0.452333134         87.4936075
260500000       0.559995625        -25.7803597        0.770772012         -68.006945        0.766923405        -67.9135546         0.45483729         83.2137409
261000000       0.548656909        -26.2249529        0.786358516        -68.8064508        0.782838224        -68.6771255        0.456064267         79.5794522
261500000       0.538847157        -26.5240363        0.798942929        -69.5689834         0.79571622        -69.4149746        0.456443728         76.4462887
262000000       0.530276102         -26.724345        0.809367358         -70.289856         0.80635768        -70.1154821        0.456296192         73.7071519
262500000       0.522836669        -26.8461748        0.817869248         -70.963684        0.815096818        -70.7734144        0.455682707         71.3055882
263000000       0.516386635        -26.9169823        0.824963938        -71.5843664        0.822398311        -71.3814871        0.455001727         69.1812316
263500000        0.51073673        -26.9481351         0.83090813        -72.1664088        0.828559198        -71.9505227        0.454184988         67.2771317
264000000       0.505742021         -26.951916        0.836034171        -72.7092951        0.833833666        -72.4825509        0.453403327         65.5567714
264500000       0.501339364        -26.9398759        0.840394098        -73.2166365        0.838380501        -72.9816473        0.452496596         63.9885769
265000000       0.497461565        -26.9137024        0.844163043        -73.6872077        0.842289447        -73.4498707        0.451728935         62.5590692
265500000       0.493989729        -26.8756948        0.847448316        -74.1345888        0.845713556        -73.8911201        0.450973323         61.2464147
266000000       0.490902532         -26.828654        0.850343511        -74.5590693        0.848705266        -74.3114082        0.450262111         60.0222463
266500000       0.488099458         -26.780917        0.852876049        -74.9603519        0.851398626        -74.7082104        0.449601658         58.8917595
267000000       0.485607539        -26.7295822        0.855135527        -75.3423283         0.85380369        -75.0861666        0.449056733         57.8271612
267500000       0.483353017        -26.6747736        0.857146123         -75.708819        0.855866729        -75.4496262        0.448521377         56.8294631
268000000       0.481316387        -26.6192675        0.858961079        -76.0589505        0.857790982        -75.7977977        0.448077381         55.8848375
268500000       0.479480822        -26.5674207        0.860569578        -76.3932661        0.859508091        -76.1316597         0.44766454         54.9901971
269000000       0.477763614        -26.5110162        0.862037957        -76.7209234        0.861097288         -76.455519        0.447251288         54.1419291
269500000       0.476227731        -26.4596465         0.86336752        -77.0338672        0.862461455        -76.7638659        0.446884763         53.3300916
270000000       0.474836728        -26.4088361        0.864582156         -77.337658        0.863727715        -77.0675929        0.446588262         52.5502919
270500000       0.473578484        -26.3568374        0.865654024        -77.6340904        0.864854391        -77.3616794        0.446294685         51.8053467
271000000       0.472411515        -26.3122825         0.86663346        -77.9186252        0.865936246        -77.6450768         0.44605108         51.0913068
271500000       0.471343589         -26.265048         0.86751875        -78.1983171        0.866916464        -77.9221066        0.445830472         50.4003603
272000000       0.470379402        -26.2229572        0.868355827        -78.4680298        0.867776046        -78.1914354        0.445613986         49.7323419
272500000       0.469492311        -26.1771211        0.869094041        -78.7354101        0.868570172        -78.4577519        0.445439178         49.0871992
273000000       0.468654303        -26.1398379        0.869781189        -78.9934869         0.86932376        -78.7144229        0.445266185         48.4659556
273500000       0.467884325        -26.1028688         0.87041886        -79.2436193        0.870012762         -78.967151         0.44515221         47.8632362
274000000        0.46721082        -26.0697833        0.871013449        -79.4927702         0.87061607        -79.2104489        0.445037804         47.2734949
274500000       0.466536895        -26.0363651        0.871522822        -79.7335805        0.871214962        -79.4536462        0.444922948         46.7034481
275000000        0.46592306        -26.0064736        0.872021941         -79.971013         0.87177688        -79.6898018        0.444828752         46.1525348
275500000       0.465381599        -25.9727397        0.872466742        -80.2066336        0.872281527        -79.9239626        0.444722825          45.606949
276000000       0.464883233        -25.9466049        0.872904235        -80.4365972        0.872688377        -80.1538987        0.444682549         45.0762293
276500000        0.46441163        -25.9232927        0.873274602        -80.6595519        0.873128516        -80.3801852        0.444634407          44.563279
277000000       0.463967969        -25.8993175        0.873623631        -80.8812694         0.87351703        -80.5998464        0.444584615         44.0609799
277500000       0.463565363        -25.8793758        0.873945613         -81.097972        0.873878469        -80.8164046        0.444587529         43.5707989
278000000       0.463195826        -25.8593233        0.874274094         -81.315413        0.874206613        -81.0335334        0.444553981         43.0823766
278500000       0.462854985        -25.8365141        0.874533691        -81.5276421        0.874475387        -81.2450001        0.444542167         42.6119397
279000000       0.462531239        -25.8191072        0.874781615        -81.7357753        0.874813472        -81.4544999         0.44454803         42.1489198
279500000       0.462235475         -25.805957        0.875052061        -81.9416155        0.875102135         -81.661538        0.444563424         41.6941207
280000000       0.461970388        -25.7919292        0.875276118        -82.1471985         0.87531387        -81.8669525        0.444582105         41.2411579
280500000       0.461748563        -25.7749474        0.875457054        -82.3474973        0.875526185        -82.0683654        0.444600304         40.8084665
281000000       0.461519134        -25.7634957         0.87564458        -82.5480686          0.8757434        -82.2677297        0.444631067         40.3756094
281500000       0.461289134        -25.7494482         0.87582314        -82.7465887        0.875964266        -82.4665038        0.444655205         39.9479626
282000000       0.461115236        -25.7397599         0.87593669         -82.940801        0.876145702        -82.6624233        0.444713459         39.5328734
282500000       0.460937331        -25.7333887        0.876103692        -83.1338126         0.87630831        -82.8577877        0.444765553          39.119935
283000000       0.460788632        -25.7270241        0.876255741        -83.3260788        0.876445841        -83.0467506        0.444809471         38.7150846
283500000       0.460635457        -25.7198366        0.876385175        -83.5168858        0.876610165         -83.237236        0.444897335         38.3098192
284000000       0.460507509        -25.7137725        0.876491302        -83.7041321        0.876746411         -83.426602        0.444976323          37.917099
284500000       0.460389588        -25.7033446        0.876591529        -83.8930379        0.876843861        -83.6147577        0.445039512         37.5231961
285000000       0.460270683        -25.7004072        0.876679464        -84.0769709         0.87700008        -83.7999594         0.44512193         37.1351628
285500000       0.460202229         -25.698643        0.876784985        -84.2604055        0.877086518        -83.9825613        0.445187786          36.756312
286000000       0.460115257         -25.693519        0.876836536        -84.4427293        0.877177816        -84.1671417         0.44528972         36.3764624
286500000       0.460044169        -25.6933277        0.876923497         -84.622262        0.877303295        -84.3492905        0.445404422         36.0074219
287000000       0.460010562        -25.6895238        0.876956792        -84.8013806        0.877288669        -84.5277816        0.445480033         35.6416507
287500000       0.459946461        -25.6916544        0.877035756        -84.9806124        0.877389947        -84.7059156        0.445589869         35.2757334
288000000       0.459899556        -25.6954378        0.877066122         -85.157563        0.877469862        -84.8826978        0.445701224         34.9196519
288500000       0.459857867        -25.6951438        0.877131852        -85.3324314        0.877526339         -85.059806        0.445805144         34.5604768
289000000       0.459841592        -25.7011522        0.877190252        -85.5059361        0.877576925         -85.233544        0.445928044         34.2110607
289500000       0.459801548        -25.7031204        0.877214629        -85.6807638        0.877643859        -85.4084215        0.446043031         33.8623362
290000000       0.459835872        -25.7070378        0.877217807        -85.8513359        0.877635132        -85.5793411        0.446156915         33.5182168
290500000       0.459818686        -25.7125923        0.877246864        -86.0222314        0.877671755        -85.7539802        0.446249574         33.1705278
291000000       0.459798065        -25.7175587        0.877254429         -86.193752        0.877723553        -85.9247455        0.446391542         32.8303735
291500000       0.459815676        -25.7228828        0.877286541        -86.3636109        0.877760636        -86.0945801        0.446520386         32.4943015
292000000       0.459832302        -25.7294957        0.877278665        -86.5312109        0.877759907        -86.2613469        0.446625338         32.1626681
292500000       0.459865592        -25.7376717        0.877291412        -86.6975982        0.877803367        -86.4293263        0.446765259         31.8307512
293000000       0.459884831        -25.7439116        0.877293958        -86.8616996        0.877811754        -86.5969737         0.44691252         31.5072088
293500000       0.459913495        -25.7538256        0.877280688        -87.0277317        0.877806077        -86.7638987        0.447034703         31.1806894
294000000       0.459947049        -25.7636524        0.877274335          -87.19213        0.877817638        -86.9288325        0.447184583         30.8572236
294500000       0.459982362        -25.7721938        0.877283667        -87.3571532        0.877814417        -87.0937638        0.447305498          30.536904
295000000       0.460026769        -25.7815079         0.87724045        -87.5211606        0.877811113        -87.2574985        0.447421067         30.2181957
295500000       0.460062977        -25.7924129        0.877263086         -87.681998        0.877813586        -87.4194117        0.447573105         29.9040236
296000000       0.460112476         -25.805908        0.877231348        -87.8430064        0.877815566        -87.5822032        0.447716978         29.5909117
296500000       0.460152174        -25.8138694        0.877229508        -88.0055305        0.877803601        -87.7425929        0.447836524         29.2818662
297000000        0.46021391        -25.8304681        0.877192198        -88.1605716         0.87778355        -87.9038131        0.447968656         28.9775947
297500000       0.460256699        -25.8436867        0.877177894        -88.3202248        0.877788312        -88.0641638        0.448117215         28.6685865
298000000       0.460323178        -25.8583525         0.87713451        -88.4787816        0.877748753        -88.2217562        0.448272251          28.364795
298500000       0.460407474        -25.8731884        0.877133341        -88.6353693        0.877720569        -88.3781856        0.448420195         28.0657588
299000000       0.460445789        -25.8871552        0.877114171        -88.7925009        0.877714094        -88.5393862        0.448562329         27.7641034
299500000       0.460536071        -25.8997043        0.877066548        -88.9513291         0.87768734        -88.6963215        0.448722692           27.46622
300000000       0.460595877        -25.9159106         0.87705156        -89.1062303        0.877662695        -88.8500187        0.448887861         27.1695334
300500000        0.46068232        -25.9324068        0.877001128        -89.2612465        0.877584995        -89.0058589        0.449020459         26.8758702
301000000       0.460752425        -25.9472233        0.876973849        -89.4175795        0.877591265        -89.1629424        0.449173107         26.5779682
301500000       0.460823256        -25.9651129        0.876927829        -89.5699453         0.87756973        -89.3168496        0.449336339         26.2932385
302000000       0.460902772        -25.9825952        0.876886505        -89.7230599        0.877522223        -89.4703553        0.449488029         26.0020038
302500000       0.460985306        -26.0023427         0.87688332        -89.8757276        0.877497682        -89.6259631        0.449652281         25.7142301
303000000       0.461046195        -26.0169694        0.876867665        -90.0295972        0.877467904        -89.7800828        0.449786179         25.4255653
303500000        0.46113301         -26.036431        0.876823239         -90.181058        0.877434159        -89.9341558        0.449933598         25.1445348
304000000       0.461220946        -26.0568166        0.876760388        -90.3296958        0.877380425        -90.0838815         0.45008145         24.8593913
304500000       0.461284647        -26.0775752        0.876742973        -90.4821147        0.877355673        -90.2374199        0.450228875         24.5767502
305000000       0.461380223        -26.0954133         0.87666724        -90.6294863        0.877301203        -90.3856248        0.450377232         24.3046894
305500000        0.46148337        -26.1168457         0.87661981        -90.7772694        0.877290174        -90.5350169        0.450547156         24.0297024
306000000       0.461553344        -26.1392098         0.87659861        -90.9266264        0.877224057        -90.6863487        0.450695549         23.7468928
306500000       0.461641461        -26.1573702        0.876559042        -91.0752161        0.877184076        -90.8343001        0.450860778         23.4750159
307000000       0.461711243        -26.1787902        0.876530516        -91.2257133        0.877156942        -90.9847054        0.450991994         23.1993988
307500000        0.46180909        -26.1985917        0.876462827        -91.3705499        0.877090249         -91.131926        0.451173838         22.9301642
308000000       0.461899318         -26.222803        0.876407459        -91.5181123        0.877046663        -91.2779729        0.451313731         22.6594446
308500000       0.461997042        -26.2427643        0.876381291        -91.6634841        0.876983721        -91.4254681        0.451457387         22.3939761
309000000       0.462087262        -26.2661854        0.876340729        -91.8092832        0.876940018        -91.5728591        0.451620989         22.1273725
309500000       0.462142861        -26.2904023        0.876298675        -91.9556362        0.876915094        -91.7175083        0.451765774         21.8571641
310000000       0.462243908        -26.3104212        0.876238636        -92.1010239        0.876852241        -91.8640955        0.451925405         21.5943786
310500000       0.462341638         -26.335013          0.8761987        -92.2435861        0.876806833        -92.0111652        0.452087848         21.3281151
311000000        0.46241535        -26.3581035        0.876155126        -92.3891183        0.876761522        -92.1549756        0.452235364         21.0683674
