! Created Thu Nov 16 15:11:48 2023
# hz S ma R 50
! 2 Port Network Data from SP1.SP block
! freq  magS11  angS11  magS21  angS21  magS12  angS12  magS22  angS22  
!     
250000000       0.503624074         -35.263239        0.852820285         85.6820104        0.853764755         86.0711769        0.485927313         25.6146852
250500000       0.504087652        -35.2631237        0.852727013         85.4642538        0.853543363         85.8609919         0.48653482         25.1892842
251000000       0.504553115        -35.2590668        0.852508373         85.2525312        0.853282369         85.6520484        0.487118862         24.7776862
251500000       0.504956344        -35.2591478        0.852310863         85.0433554        0.853093672         85.4422537        0.487705593         24.3683402
252000000       0.505361791        -35.2558009        0.852115417         84.8376838        0.852886027         85.2338972        0.488285099         23.9650566
252500000       0.505758235        -35.2584621        0.851930689         84.6297328        0.852668542         85.0289195        0.488840487         23.5621031
253000000       0.506186727        -35.2624493        0.851717363         84.4264417        0.852462158         84.8257304        0.489415143         23.1625658
253500000       0.506597466        -35.2633369        0.851539409         84.2221241         0.85225296         84.6217196        0.489950217         22.7683898
254000000       0.506970201        -35.2652347         0.85133875         84.0191613        0.852043069         84.4157408        0.490490221         22.3759069
254500000       0.507382024        -35.2713033         0.85116246         83.8162848        0.851849292          84.215248        0.491021861         21.9890332
255000000       0.507763403        -35.2762787        0.850973199         83.6172583        0.851598241         84.0159122        0.491544595         21.6033252
255500000       0.508151427        -35.2812437         0.85077192          83.417567        0.851391217         83.8160617         0.49206212         21.2234454
256000000       0.508502541        -35.2905563         0.85060103         83.2191485        0.851194929         83.6171238        0.492581989         20.8423156
256500000       0.508905472        -35.2958275        0.850426321         83.0210575        0.850980297         83.4194309        0.493077794         20.4680147
257000000       0.509238698        -35.3054603        0.850232739         82.8242967        0.850805755         83.2222004        0.493605151         20.0939115
257500000       0.509666724         -35.315933        0.850029172         82.6306204        0.850573618         83.0289948        0.494122778         19.7240156
258000000       0.509985876        -35.3220188        0.849862884           82.43459        0.850423107         82.8311638        0.494627896         19.3586996
258500000       0.510358064        -35.3348017        0.849687646         82.2409908        0.850181925         82.6409238        0.495093443         18.9955118
259000000       0.510723243        -35.3426635        0.849482637         82.0502598        0.849947892         82.4488453        0.495558978          18.636181
259500000       0.511049264        -35.3558382        0.849303763         81.8592449         0.84979829         82.2558394        0.496032971         18.2775963
260000000       0.511395966        -35.3683681        0.849144018         81.6659714        0.849588856         82.0674716        0.496494428         17.9214057
260500000       0.511737935        -35.3813778        0.848951233         81.4780279        0.849418352         81.8777325        0.496932532         17.5713573
261000000       0.512085415        -35.3944921        0.848753975         81.2920216         0.84919175         81.6888779        0.497400578         17.2202948
261500000        0.51243693        -35.4099988        0.848596335         81.1083773        0.848985856         81.5048226        0.497889301         16.8791852
262000000       0.512791019        -35.4258296        0.848410321          80.921791        0.848830948         81.3179536        0.498357182         16.5313588
262500000       0.513111735         -35.441363        0.848239261         80.7372384        0.848635955         81.1346889        0.498764111         16.1932518
263000000       0.513461622          -35.45956        0.848067714         80.5554147        0.848438973          80.950624        0.499222551         15.8554982
263500000       0.513796115        -35.4746822        0.847874276         80.3729202        0.848251806         80.7670958        0.499661744         15.5196473
264000000       0.514108181        -35.4955836        0.847706838         80.1913137        0.848075614         80.5864711        0.500089829         15.1924128
264500000       0.514438381        -35.5156147        0.847518082         80.0108004         0.84789298         80.4057705        0.500491807         14.8597942
265000000       0.514769162        -35.5354788        0.847382167         79.8338907        0.847688641         80.2272957        0.500933885         14.5304415
265500000       0.515116239        -35.5571534        0.847237578         79.6579758         0.84749782         80.0485604        0.501331963         14.2091841
266000000       0.515450306         -35.578298        0.847065507         79.4798143        0.847305705         79.8712156        0.501742824         13.8861024
266500000       0.515756555        -35.6038308        0.846928165         79.3046841        0.847154204         79.6962459        0.502150506         13.5669523
267000000       0.516069877        -35.6268159        0.846788249         79.1324688        0.847011085         79.5205174        0.502618298          13.249403
267500000       0.516388904        -35.6529836        0.846646513         78.9584097        0.846807258         79.3476036        0.502985198         12.9345649
268000000       0.516691125        -35.6797539        0.846528439         78.7835825        0.846658865         79.1755582        0.503401547         12.6234015
268500000       0.517011065        -35.7079298        0.846377216         78.6145654        0.846507415         79.0038494        0.503833064         12.3127725
269000000       0.517293278        -35.7333333        0.846257416          78.441953        0.846362495         78.8295664         0.50419063         12.0037159
269500000        0.51755795        -35.7654729        0.846150716         78.2717729        0.846225053          78.662191        0.504588102         11.6955517
270000000       0.517817253        -35.7938882        0.846017311         78.1007795        0.846075412          78.490995        0.504951406         11.3892116
270500000       0.518088318        -35.8227961        0.845901438         77.9297028        0.845930061         78.3223303        0.505362841         11.0877438
271000000        0.51834782        -35.8556678        0.845793912          77.763507         0.84581815         78.1551981         0.50573838         10.7855361
271500000       0.518566697        -35.8829576        0.845668702         77.5941988        0.845707242         77.9855725         0.50611956         10.4850627
272000000       0.518806607        -35.9163973        0.845566886         77.4282881        0.845582905         77.8201322        0.506510187         10.1897285
272500000       0.519073735        -35.9419064        0.845424724         77.2606512        0.845435539         77.6535966        0.506885232         9.89327961
273000000       0.519300947        -35.9720202        0.845324544         77.0942475        0.845319939         77.4886786        0.507239447         9.60052999
273500000       0.519515198        -36.0045995        0.845227278         76.9317614        0.845196957         77.3234844         0.50761234         9.30710114
274000000       0.519756756        -36.0376835        0.845150121         76.7666914        0.845081587         77.1632056        0.507995702         9.01414396
274500000       0.519961013        -36.0676768        0.845030533         76.6060265        0.844982704         76.9981005        0.508340229         8.72462124
275000000       0.520182461        -36.0989896        0.844936609         76.4435698        0.844900688         76.8365583        0.508677599         8.43907754
275500000       0.520422881        -36.1270358        0.844855143         76.2782726        0.844812038         76.6724873         0.50899717         8.14550289
276000000       0.520628005        -36.1623657        0.844771401         76.1156021        0.844666294         76.5132823        0.509344129         7.86081729
276500000       0.520862554        -36.1954203        0.844682519         75.9585712        0.844577044         76.3510055        0.509682264         7.57603363
277000000       0.521049428        -36.2291212        0.844592067         75.7979462        0.844511129         76.1920207         0.50999582          7.2969024
277500000       0.521276358        -36.2648289        0.844525164          75.639668        0.844385549         76.0322784        0.510316612         7.01575951
278000000       0.521459338        -36.2999083         0.84448139         75.4812718        0.844300566         75.8737589        0.510596844         6.73484769
278500000       0.521648501         -36.332068        0.844365571         75.3251306        0.844172722         75.7172496        0.510895112          6.4601491
279000000       0.521862798        -36.3659357        0.844274357         75.1691389        0.844118485         75.5596666        0.511171558         6.18739533
279500000       0.522049776         -36.401047         0.84423782         75.0127278        0.844054371         75.4019907        0.511450654         5.91283929
280000000       0.522226344        -36.4401878        0.844166435          74.855129        0.843946428         75.2454547        0.511728835         5.63767239
280500000        0.52246005        -36.4758845        0.844092564         74.7011454        0.843834797         75.0914728        0.511998303         5.37035754
281000000       0.522611424        -36.5082026        0.844022231         74.5474631         0.84375688         74.9371057        0.512256409         5.10513211
281500000       0.522775838        -36.5442827         0.84394772         74.3913963        0.843702009         74.7812816        0.512520087         4.83513442
282000000       0.522984342        -36.5814304        0.843856541         74.2388753          0.8436092         74.6288316        0.512763279         4.57073397
282500000       0.523153821        -36.6183024        0.843794213         74.0871432        0.843523747         74.4737969        0.512994338         4.31131159
283000000       0.523320925        -36.6591715         0.84374311         73.9333883        0.843432673         74.3250416        0.513218532         4.04986337
283500000       0.523478937        -36.6943862        0.843688543         73.7811779        0.843361119         74.1720831        0.513465302         3.78314336
284000000       0.523642119        -36.7321368        0.843616903         73.6312609        0.843293513         74.0200209         0.51368727         3.52796942
284500000       0.523799048         -36.766579        0.843562295         73.4781793        0.843196243         73.8693968        0.513900752         3.27016652
285000000       0.523952094        -36.8043743        0.843497684         73.3301392        0.843153074         73.7195534        0.514125536         3.01327345
285500000       0.524108029        -36.8438215        0.843449903         73.1803058        0.843064307         73.5713769        0.514340411         2.75851293
286000000       0.524276903        -36.8814506        0.843373049         73.0309173         0.84299959         73.4210333        0.514564299         2.50675747
286500000       0.524418612         -36.920601        0.843331084         72.8841985        0.842946993         73.2712117        0.514762436         2.25517048
287000000       0.524583157        -36.9567265        0.843241152         72.7375123        0.842805683         73.1253554        0.514963999         2.00899224
287500000       0.524702223        -36.9972255        0.843211986         72.5902382        0.842773476         72.9794478        0.515151608         1.76082546
288000000       0.524830817        -37.0364183        0.843133262         72.4419823        0.842692831         72.8325641         0.51531613         1.51286882
288500000        0.52497416        -37.0750037        0.843107744         72.2980907        0.842626306         72.6847653        0.515538246         1.26642819
289000000       0.525113326        -37.1160881        0.843076286         72.1546068        0.842573413         72.5407172         0.51574746         1.02352828
289500000       0.525217001        -37.1535343        0.843014007         72.0084064        0.842523406         72.3963629        0.515900431        0.782058829
290000000       0.525359746        -37.1957562        0.842937089         71.8662348        0.842437146         72.2535735        0.516087675        0.544587429
290500000       0.525493649        -37.2319182        0.842909933         71.7234746        0.842378119         72.1080694        0.516248069        0.299922572
291000000       0.525591182        -37.2717715        0.842852554         71.5797451        0.842312976         71.9650129        0.516417281       0.0641855221
291500000       0.525708729        -37.3110073        0.842820435         71.4354274        0.842258608         71.8214897        0.516589369       -0.177728546
292000000       0.525824854         -37.349323        0.842757281         71.2961297        0.842182458         71.6822266          0.5167365       -0.412462058
292500000       0.525943438         -37.391063        0.842741754           71.15529        0.842151831         71.5418332         0.51689242       -0.649449396
293000000       0.526058217        -37.4281083        0.842687627          71.016864        0.842104394         71.3999495        0.517077472       -0.875504022
293500000       0.526164181        -37.4710386        0.842648224         70.8758618        0.842036912         71.2601804        0.517207003        -1.10850951
294000000       0.526277294        -37.5128583        0.842596435         70.7370084        0.841982082         71.1200935        0.517389527        -1.34154494
294500000       0.526366027        -37.5534942        0.842581077         70.5974846         0.84192277         70.9813478        0.517504079        -1.56975333
295000000       0.526451672        -37.5905576        0.842513698         70.4575549        0.841867764         70.8427581         0.51762884        -1.79878975
295500000       0.526539111        -37.6314275        0.842496924         70.3201486        0.841828039         70.7032079        0.517784748         -2.0239002
296000000       0.526635044        -37.6714894        0.842447739         70.1840758        0.841782095         70.5665792        0.517905267        -2.25181845
296500000       0.526710038        -37.7104341         0.84242701         70.0467066        0.841747292          70.429008        0.518014509        -2.47676557
297000000        0.52680768         -37.753298        0.842397381         69.9140619        0.841695038         70.2905521        0.518146276        -2.69733752
297500000       0.526861838        -37.7935224        0.842359816         69.7773631        0.841664728          70.156459        0.518266262        -2.91942666
298000000       0.526931775        -37.8375425        0.842310388         69.6424595        0.841606068         70.0233451        0.518389362        -3.14235315
298500000       0.527035215        -37.8801375        0.842320452          69.507982        0.841551818          69.889328        0.518514599          -3.362618
299000000       0.527090185        -37.9215923        0.842289316         69.3752161        0.841522129         69.7526553        0.518616691        -3.57987379
299500000       0.527177361        -37.9603911        0.842263083         69.2384471        0.841489357         69.6176994        0.518744568        -3.79858566
300000000       0.527235149         -38.002413        0.842241582         69.1062634        0.841442057         69.4873909          0.5188866        -4.01670092
300500000       0.527300684        -38.0457179         0.84221561         68.9732038        0.841360447         69.3537904        0.518966754        -4.23299436
301000000       0.527364448        -38.0846271        0.842189622         68.8393045        0.841394818         69.2200225        0.519049773        -4.45031327
301500000       0.527417562        -38.1267431        0.842168847         68.7089044        0.841339425         69.0885889        0.519177233        -4.66030003
302000000       0.527463134          -38.16996        0.842153953         68.5785653        0.841300144         68.9576905        0.519281052        -4.87109605
302500000        0.52754185        -38.2139235        0.842158727         68.4467377        0.841287325         68.8256123        0.519370774        -5.08607578
303000000       0.527563721        -38.2554614        0.842149534          68.314968        0.841263058         68.6938434         0.51944786        -5.29980215
303500000        0.52760308        -38.2965497        0.842138506         68.1854047        0.841224375         68.5619787        0.519510585        -5.50536691
304000000       0.527645726        -38.3403936        0.842129437         68.0584366        0.841183825         68.4342741        0.519615569        -5.71738358
304500000       0.527678364        -38.3848368        0.842109225         67.9278364        0.841187958         68.3039632        0.519677394        -5.92539916
305000000       0.527726149        -38.4255511        0.842081192         67.7997873        0.841137273         68.1765743        0.519776609        -6.12686686
305500000       0.527774858        -38.4695311        0.842087087         67.6734443        0.841143634         68.0485215        0.519853946        -6.33222133
306000000       0.527779728        -38.5139522        0.842118549         67.5474239        0.841124739         67.9203155        0.519942635        -6.54062632
306500000        0.52781799        -38.5573156        0.842103621         67.4189427        0.841117663         67.7942254        0.520016153        -6.74257863
307000000       0.527807349        -38.5995844        0.842106663         67.2898573        0.841137662          67.664879        0.520057671        -6.94676731
307500000       0.527846726        -38.6421663        0.842105039         67.1647896        0.841073661         67.5396461        0.520132311        -7.14640122
308000000        0.52786332        -38.6864323         0.84210024         67.0394881        0.841096208         67.4149707        0.520216315        -7.34978807
308500000       0.527899138        -38.7283338        0.842104424         66.9155577        0.841029896         67.2893251        0.520254155        -7.54594145
309000000       0.527913132        -38.7742576        0.842124371         66.7898338        0.841032775         67.1654203        0.520312643        -7.74425359
309500000        0.52787956        -38.8180479        0.842152566         66.6643965        0.841059155         67.0387521        0.520367938        -7.94633675
310000000       0.527885926        -38.8598219        0.842140941         66.5393202         0.84103604         66.9167944        0.520410079        -8.14075593
310500000       0.527905854        -38.9032511        0.842156338         66.4173361        0.841045771         66.7911695        0.520460924        -8.33743049
311000000       0.527880843        -38.9468857         0.84217762         66.2909252        0.841049288         66.6669062        0.520506947          -8.535184
