! Created Thu Nov 16 15:09:13 2023
# hz S ma R 50
! 2 Port Network Data from SP1.SP block
! freq  magS11  angS11  magS21  angS21  magS12  angS12  magS22  angS22  
!     
250000000        0.50171599        -36.1486793        0.853355092         84.4162019        0.854355647         84.9036915         0.48446685         24.0442375
250500000       0.502074898        -36.1449397        0.853362522         84.1995482        0.854222079         84.6965951        0.484977144         23.6131889
251000000        0.50240545        -36.1374291        0.853222937         83.9891574        0.854054868         84.4885249        0.485452509         23.1960472
251500000       0.502703571        -36.1328748        0.853090369         83.7822114         0.85391226         84.2799359        0.485927695         22.7837345
252000000       0.502994812        -36.1252925        0.852972793         83.5747566        0.853762112         84.0716534        0.486397491         22.3729328
252500000       0.503274251        -36.1227146        0.852849049         83.3677214        0.853631577         83.8673417        0.486845971         21.9652903
253000000       0.503588651        -36.1215718        0.852719268         83.1637092        0.853479528         83.6648457        0.487303189          21.563209
253500000       0.503866145        -36.1184263        0.852624603         82.9598642        0.853346731          83.460805        0.487764351         21.1615014
254000000       0.504141146        -36.1140244        0.852480405         82.7583832        0.853184295         83.2565241        0.488189823         20.7676663
254500000       0.504440377        -36.1155086        0.852366712         82.5555492        0.853057294         83.0553706        0.488612164         20.3731277
255000000       0.504714279        -36.1162295        0.852247952         82.3549877        0.852883968          82.856705        0.489048185         19.9837885
255500000       0.504986601        -36.1170104         0.85211898         82.1571486        0.852746065         82.6565232         0.48947134         19.5950639
256000000       0.505257853        -36.1196942          0.8519997         81.9574458        0.852634774         82.4591648        0.489889831         19.2112078
256500000        0.50551904        -36.1192757        0.851896522         81.7607103        0.852487547         82.2612194        0.490298383         18.8303714
257000000       0.505771611        -36.1233389        0.851778661         81.5636426        0.852350263         82.0642226        0.490722203         18.4504904
257500000       0.506090319        -36.1293208        0.851632486         81.3706832        0.852180407          81.870773        0.491129302         18.0742209
258000000       0.506310692        -36.1289585        0.851563881         81.1751497         0.85207116         81.6737726        0.491528554         17.7036874
258500000       0.506580546        -36.1370217        0.851426274         80.9813097        0.851921427         81.4825302        0.491901254         17.3327809
259000000       0.506837401        -36.1387775        0.851309697         80.7908619        0.851758514         81.2916255        0.492295845         16.9714547
259500000       0.507061596        -36.1466797        0.851194624         80.6004065        0.851671402          81.098552        0.492696911         16.6012768
260000000       0.507316922        -36.1507371        0.851080402         80.4075914        0.851518699         80.9092066        0.493057675         16.2429167
260500000       0.507561287        -36.1597664        0.850961423         80.2193658         0.85140533         80.7200639        0.493422168         15.8865918
261000000       0.507805733        -36.1665344        0.850848465         80.0315774        0.851276031         80.5309378        0.493802004         15.5262296
261500000       0.508026941        -36.1762119        0.850738289         79.8471355        0.851136502          80.345118        0.494198344         15.1767934
262000000       0.508293746        -36.1838911        0.850618098         79.6592669        0.850997658         80.1578285        0.494526418         14.8259566
262500000        0.50853554         -36.192786        0.850523542         79.4732017        0.850874954         79.9732859         0.49488957          14.481165
263000000       0.508782888        -36.2042753         0.85042806         79.2893262        0.850734239         79.7891964        0.495239687         14.1389352
263500000       0.509014564        -36.2132911        0.850299847         79.1052765        0.850592153         79.6054705        0.495598856         13.7935695
264000000       0.509258543        -36.2239205        0.850183901         78.9227689         0.85047071          79.423132        0.495955679         13.4574065
264500000       0.509506102        -36.2371322        0.850079289         78.7399414        0.850338243         79.2421483        0.496252492         13.1164096
265000000       0.509743682        -36.2503446        0.849970986         78.5613203        0.850206482         79.0620594        0.496634896         12.7828081
265500000       0.510021182        -36.2636617        0.849869238         78.3838648        0.850059479         78.8828277         0.49695869         12.4498178
266000000       0.510266698         -36.279716        0.849762378         78.2024927        0.849920914         78.7047225        0.497259692         12.1184104
266500000       0.510502681        -36.2979065        0.849670162         78.0261521        0.849823369         78.5274269        0.497596425          11.792842
267000000       0.510740184         -36.314112        0.849552184         77.8511542        0.849715626         78.3511024        0.497938634          11.468645
267500000       0.510973035        -36.3352525        0.849434744         77.6750584        0.849556027         78.1767144        0.498237775         11.1440893
268000000       0.511214729        -36.3549053        0.849341625         77.5005115        0.849439088         78.0025342        0.498545808         10.8245808
268500000       0.511446379        -36.3773567        0.849232288         77.3295092         0.84935047         77.8303734        0.498902057         10.5077354
269000000       0.511655629        -36.3967613        0.849105902          77.156208        0.849234876         77.6557786        0.499130774         10.1923415
269500000       0.511860961        -36.4224642        0.849040141         76.9853054        0.849136716          77.486658        0.499463932         9.87716081
270000000       0.512075659        -36.4434614         0.84893851          76.814107        0.849004153          77.314815        0.499748342         9.56209776
270500000       0.512283305        -36.4664548        0.848854007         76.6433277        0.848885845         77.1465845        0.500024871         9.25505501
271000000       0.512472301        -36.4928357        0.848751899          76.477348        0.848788859         76.9784087        0.500305149         8.94551013
271500000        0.51266519        -36.5150233        0.848687234         76.3092545        0.848706104         76.8096401          0.5006031         8.64307115
272000000        0.51284148        -36.5438311        0.848618348         76.1438143        0.848620253         76.6443117        0.500905471         8.33702934
272500000       0.513044202        -36.5671395        0.848518603         75.9751897        0.848529657         76.4776007        0.501202365         8.03455705
273000000       0.513210066        -36.5908829        0.848447333         75.8100448        0.848449401         76.3136669         0.50145745         7.73885028
273500000       0.513352823         -36.619437        0.848409756         75.6477282        0.848380124         76.1484144        0.501734806         7.44133834
274000000       0.513551361        -36.6494998        0.848352788         75.4824607        0.848291546         75.9880202        0.502002481         7.13894029
274500000       0.513677712        -36.6742322        0.848298637         75.3214637        0.848250314         75.8244524         0.50229266           6.848952
275000000       0.513840271        -36.7009191        0.848256301         75.1585778        0.848189212         75.6613446         0.50254154          6.5556325
275500000       0.514014752        -36.7256624        0.848209335         74.9949736        0.848161098         75.4977988        0.502792683          6.2565481
276000000       0.514164094        -36.7552534        0.848178845         74.8320416        0.848062642         75.3388757        0.503062662         5.96926038
276500000       0.514306626        -36.7855623        0.848137392         74.6730616        0.848022985         75.1757663        0.503315371         5.68038132
277000000       0.514438823        -36.8139864        0.848103673         74.5141414        0.847989312         75.0173888        0.503573647          5.3927968
277500000       0.514573446        -36.8473061        0.848072357         74.3559001        0.847925976         74.8573508        0.503797912         5.10811142
278000000       0.514712562        -36.8771238         0.84805966         74.1950392        0.847863901         74.6990377        0.504019189         4.82623206
278500000       0.514816533        -36.9040027        0.847994304          74.037454        0.847803403         74.5415706        0.504266188         4.54510828
279000000       0.514956652        -36.9329747         0.84796294          73.880151        0.847773493         74.3825993        0.504485081         4.26361393
279500000       0.515081726        -36.9650697        0.847965694          73.724051        0.847742607         74.2253296        0.504695542         3.98356147
280000000       0.515196272        -36.9980896        0.847922954         73.5664752        0.847695333         74.0692433         0.50491051          3.7060663
280500000       0.515340502        -37.0300758        0.847896903          73.411781        0.847637837         73.9151176        0.505127206         3.43424716
281000000       0.515438646        -37.0574343         0.84786116         73.2582752          0.8475953          73.759635        0.505296986         3.15975614
281500000       0.515538452        -37.0895791        0.847837993          73.101582        0.847584391         73.6036567        0.505496672         2.88467566
282000000       0.515690791        -37.1199431        0.847774967         72.9478907        0.847527008          73.450711        0.505695901         2.61617587
282500000       0.515796177        -37.1527098        0.847777959         72.7953009        0.847467544         73.2952161        0.505874561         2.34455284
283000000        0.51589502         -37.188739        0.847762713         72.6411095        0.847428373         73.1443904        0.506068694          2.0769263
283500000       0.515987575        -37.2178908        0.847734815         72.4891167        0.847396276         72.9914983        0.506242263         1.80786818
284000000       0.516093795        -37.2524949        0.847711048         72.3387167        0.847366123         72.8398425        0.506417742         1.54668435
284500000       0.516188524        -37.2821798        0.847676916         72.1853536        0.847320808         72.6874015         0.50657478         1.28177768
285000000       0.516288782        -37.3128408        0.847664694         72.0363355        0.847306197         72.5369701        0.506720502         1.01929079
285500000        0.51638546        -37.3478158        0.847651247         71.8853483        0.847268085         72.3892452        0.506882578        0.759757994
286000000       0.516486956        -37.3800802        0.847611827         71.7351003        0.847234411         72.2386053        0.507035167        0.501814328
286500000       0.516564519        -37.4140338        0.847623732         71.5888042        0.847228242         72.0879348        0.507219651        0.240603933
287000000       0.516671512         -37.445584        0.847576793         71.4412338        0.847120241         71.9413344        0.507374221       -0.011165699
287500000       0.516742613        -37.4802568        0.847572121         71.2927502        0.847118074         71.7937427         0.50751423       -0.268084333
288000000       0.516815933        -37.5144991         0.84755456           71.14395         0.84709268         71.6477167        0.507633905        -0.51935132
288500000        0.51690089        -37.5490774        0.847553433         70.9990527        0.847059332         71.4998747        0.507790065       -0.772696282
289000000       0.516975124        -37.5862231         0.84756875         70.8549847         0.84703664         71.3557098        0.507928888        -1.02535918
289500000       0.517025245        -37.6185838        0.847530295          70.708017        0.847035236         71.2105919        0.508034866        -1.27137312
290000000       0.517110083        -37.6558659        0.847517487          70.565013        0.846978686         71.0669714        0.508175876        -1.51815118
290500000       0.517183772            -37.688        0.847501677         70.4208624         0.84695977         70.9205927        0.508284255        -1.76813552
291000000       0.517226586         -37.722387        0.847499363         70.2758347        0.846954311         70.7767075        0.508417212        -2.00978149
291500000       0.517288848        -37.7583718         0.84750014         70.1324005        0.846952754         70.6329365        0.508528073        -2.25557843
292000000       0.517353662        -37.7915329        0.847487089         69.9895561        0.846913164         70.4933775        0.508628534        -2.49900532
292500000       0.517413745        -37.8287568        0.847487697         69.8488786        0.846915715         70.3505136        0.508742639         -2.7420724
293000000       0.517475476        -37.8611881        0.847485276          69.708781        0.846881123         70.2093367        0.508839953        -2.97802729
293500000       0.517541028        -37.8993095        0.847487668         69.5675136        0.846835936         70.0688969        0.508934751        -3.21666428
294000000       0.517596617          -37.93672        0.847477268         69.4266375        0.846849674         69.9289074        0.509067985        -3.45521038
294500000       0.517634163        -37.9725356        0.847478557         69.2874747        0.846818537         69.7887409        0.509150888        -3.69079513
295000000       0.517644988          -38.00564        0.847472401         69.1462252         0.84680567         69.6491385        0.509219017        -3.92772718
295500000       0.517690347         -38.043287        0.847475968         69.0082757        0.846813737         69.5105213         0.50933105        -4.15859672
296000000       0.517736317        -38.0774416        0.847471577         68.8705243        0.846796538         69.3721801        0.509401197        -4.39184139
296500000       0.517753021        -38.1124081        0.847475235         68.7317757        0.846783242         69.2343587        0.509460647        -4.62632731
297000000       0.517811792        -38.1516457        0.847497652         68.5973752        0.846772033         69.0969194        0.509534727        -4.85282243
297500000       0.517799512         -38.186118        0.847481315         68.4603394        0.846777458         68.9601531        0.509613969        -5.08490944
298000000       0.517825502        -38.2263424        0.847471277         68.3238652        0.846758181         68.8261462        0.509713922        -5.31305413
298500000       0.517883907        -38.2656997        0.847506521         68.1897971        0.846734828         68.6910448        0.509759375        -5.53757912
299000000       0.517892838        -38.3014682        0.847521534          68.054331        0.846736745         68.5539553        0.509826135        -5.76295171
299500000       0.517918589        -38.3361355        0.847523412          67.916334        0.846727355         68.4192776         0.50988401        -5.98866318
300000000       0.517925232        -38.3733101        0.847548381         67.7811766        0.846746529         68.2871668        0.509987075        -6.21356805
300500000       0.517944774        -38.4135274        0.847558246         67.6490868        0.846691184         68.1537187        0.510031748        -6.43346597
301000000       0.517954725         -38.449498        0.847560078         67.5131827        0.846743855         68.0179407        0.510083232        -6.66089954
301500000       0.517965772        -38.4868432        0.847571092         67.3819914        0.846749009         67.8850738        0.510148488        -6.87696944
302000000       0.517953194        -38.5259429        0.847600174         67.2489541        0.846718051         67.7551334        0.510195469        -7.09797541
302500000       0.517985571        -38.5657053        0.847654502         67.1174005        0.846754648          67.624049        0.510251645        -7.31663928
303000000       0.517965035        -38.6013139        0.847671698         66.9837164        0.846753414         67.4903862        0.510286423        -7.53677454
303500000       0.517960797        -38.6403774        0.847661745         66.8535179        0.846730787         67.3590887         0.51030537        -7.74808349
304000000       0.517953623        -38.6810606        0.847709265          66.723393        0.846746947         67.2304917        0.510361136        -7.96540818
304500000       0.517933293        -38.7185965        0.847742692         66.5922503        0.846780148         67.0972065        0.510387893        -8.18228984
305000000       0.517933735        -38.7563879        0.847731783         66.4635035        0.846776321          66.969866        0.510406137        -8.38981074
305500000       0.517938322         -38.796717        0.847754918          66.334878        0.846794575         66.8430735        0.510452589        -8.60321082
306000000        0.51789551        -38.8374315        0.847847046          66.207752        0.846816245         66.7128182        0.510493503        -8.81715856
306500000       0.517886294        -38.8741577        0.847843661         66.0779119        0.846823809         66.5849516        0.510525047        -9.02695757
307000000       0.517831493        -38.9134449        0.847879918         65.9474546        0.846879881         66.4543676        0.510524244        -9.23955216
307500000       0.517830206        -38.9529066        0.847915224         65.8209055        0.846870315         66.3293471        0.510552229        -9.44511128
308000000       0.517796869        -38.9938533        0.847931348         65.6933749        0.846907012         66.2045096        0.510567703        -9.65229887
308500000       0.517775946        -39.0308889        0.847981279         65.5658757        0.846886559         66.0764044        0.510570913        -9.85734192
309000000       0.517747981        -39.0723258        0.848047382         65.4417763        0.846917027         65.9521451        0.510613826        -10.0621067
309500000       0.517676212        -39.1119276        0.848086792         65.3133017        0.846955724         65.8248657        0.510601139        -10.2707052
310000000       0.517633927         -39.149006        0.848115935         65.1877531        0.846964334         65.7022534        0.510614386        -10.4705956
310500000       0.517608516        -39.1889754        0.848139131         65.0636182        0.846998767         65.5754783         0.51059565         -10.675653
311000000       0.517549323        -39.2260195        0.848185448         64.9359826        0.847044307         65.4497166        0.510618755        -10.8802664
