! Created Mon Nov 27 15:38:59 2023
# hz S ma R 50
! 2 Port Network Data from SP1.SP block
! freq  magS11  angS11  magS21  angS21  magS12  angS12  magS22  angS22  
!     
250000000       0.389267922        -15.6982492        0.877382022        -79.3524858        0.877382022        -79.3524858        0.290711709         39.4602021
250500000       0.391076131        -15.0294219        0.873166814        -79.8712037        0.873166814        -79.8712037        0.282968423         38.1590532
251000000        0.39343914        -14.3062152        0.868132412        -80.4160316        0.868132412        -80.4160316        0.274012473         36.7984808
251500000       0.396514362        -13.5302329        0.862087064        -80.9862149        0.862087064        -80.9862149        0.263606832         35.3888892
252000000       0.400499448         -12.707867        0.854793856        -81.5785578        0.854793856        -81.5785578        0.251468356         33.9546817
252500000       0.405637529        -11.8529505        0.845964662        -82.1857437        0.845964662        -82.1857437         0.23726648           32.54634
253000000       0.412215761        -10.9906331        0.835262606        -82.7935211        0.835262607        -82.7935211         0.22063745         31.2640475
253500000       0.420553701        -10.1615425        0.822315949        -83.3766759        0.822315949        -83.3766759         0.20122388         30.3047098
254000000       0.430967918        -9.42616396        0.806764632        -83.8930679        0.806764632        -83.8930679        0.178787377          30.061732
254500000       0.443700901        -8.86708819        0.788360909        -84.2760889         0.78836091        -84.2760889        0.153489084         31.3455713
255000000       0.458798399        -8.58611784        0.767160556        -84.4273417        0.767160556        -84.4273417         0.12660998         35.8663482
255500000       0.475947701        -8.69145896        0.743809903        -84.2158209        0.743809904        -84.2158209        0.102364895         46.9549555
256000000       0.494318781        -9.27314916        0.719878836        -83.4957826        0.719878837        -83.4957826        0.090931529         67.5903133
256500000       0.512373188        -10.3678978        0.698196288        -82.1645802        0.698196289        -82.1645802        0.103531876           89.76583
257000000       0.528479044        -11.9296283        0.681911855        -80.2419634        0.681911855        -80.2419634        0.136192454         102.253095
257500000       0.541047066        -13.8373659        0.673829998        -77.9242901        0.673829998        -77.9242902        0.177532746         106.169942
258000000       0.549062152        -15.9180995         0.67507948        -75.5513138        0.675079481        -75.5513139        0.219774736         105.523893
258500000       0.552384875        -17.9938751         0.68457387        -73.4624758         0.68457387        -73.4624758        0.258674245         102.733109
259000000       0.551641446        -19.9236386        0.699720171        -71.8616666        0.699720171        -71.8616666        0.292221177         99.0553459
259500000       0.547868196        -21.6226227        0.717651257         -70.788299        0.717651257         -70.788299        0.319882938         95.1424099
260000000       0.542149052        -23.0586892         0.73609406        -70.1739619         0.73609406        -70.1739619        0.342012177         91.3236918
260500000       0.535394099        -24.2369771        0.753622053        -69.9113555        0.753622053        -69.9113555        0.359378658          87.751652
261000000       0.528266588        -25.1832469        0.769522502        -69.8972105        0.769522502        -69.8972105        0.372857242         84.4828757
261500000       0.521200207        -25.9314824        0.783557894        -70.0488427        0.783557894        -70.0488427        0.383263493         81.5236276
262000000       0.514451326        -26.5162502        0.795757854        -70.3059993        0.795757854        -70.3059993        0.391287065         78.8560174
262500000        0.50815339        -26.9689115        0.806279678         -70.627064        0.806279677         -70.627064        0.397480996         76.4521334
263000000       0.502361103        -27.3161957        0.815326251         -70.984188         0.81532625         -70.984188        0.402275721         74.2817352
263500000       0.497081535        -27.5800973        0.823104159        -71.3591712        0.823104159        -71.3591711        0.406000944         72.3155804
264000000       0.492304572        -27.7777468          0.8297813        -71.7397411          0.8297813         -71.739741        0.408881677         70.5317868
264500000       0.488001418         -27.923472         0.83551592        -72.1178857        0.835515919        -72.1178856        0.411097496         68.9093461
265000000       0.484114797        -28.0295272         0.84049245        -72.4902138        0.840492449        -72.4902137        0.412839421         67.4193595
265500000       0.480604874        -28.1044368        0.844828454        -72.8542346        0.844828454        -72.8542346        0.414214067         66.0446751
266000000       0.477433387        -28.1549037         0.84862201        -73.2086211         0.84862201        -73.2086212         0.41530297         64.7706481
266500000       0.474564824        -28.1861955         0.85195467        -73.5528064         0.85195467        -73.5528064        0.416168657         63.5847432
267000000       0.471966932        -28.2024744        0.854894256         -73.886673        0.854894256        -73.8866731        0.416859661         62.4763521
267500000       0.469610765         -28.207023        0.857497236        -74.2104104        0.857497236        -74.2104104        0.417413577         61.4363618
268000000       0.467470568          -28.20244        0.859810742        -74.5243838        0.859810742        -74.5243838        0.417859752         60.4569614
268500000       0.465523541        -28.1907798        0.861874187        -74.8290681        0.861874187        -74.8290681        0.418221077         59.5313976
269000000       0.463749546        -28.1736899        0.863720775        -75.1249636        0.863720775        -75.1249636        0.418515832         58.6539188
269500000        0.46213082        -28.1524785        0.865378488        -75.4125979        0.865378488        -75.4125979        0.418758384          57.819511
270000000       0.460651702        -28.1281901         0.86687103        -75.6924936         0.86687103        -75.6924936        0.418960152         57.0238189
270500000       0.459298385        -28.1016524          0.8682185        -75.9651671          0.8682185        -75.9651671        0.419130113         56.2630122
271000000       0.458058656        -28.0735432        0.869438175        -76.2310886        0.869438175        -76.2310886        0.419275686         55.5338054
271500000       0.456921717        -28.0443995        0.870544823        -76.4907109        0.870544823         -76.490711        0.419402719         54.8332833
272000000       0.455881244        -28.0159004        0.871537037        -76.7427639        0.871537037         -76.742764        0.419489752         54.1641515
272500000        0.45492459        -27.9873341        0.872440009        -76.9892005        0.872440009        -76.9892005        0.419564744         53.5190685
273000000       0.454043904        -27.9588353        0.873264756        -77.2305622        0.873264756        -77.2305622        0.419633662         52.8954912
273500000       0.453232587        -27.9306122        0.874019362        -77.4671828        0.874019362        -77.4671828        0.419698818         52.2916677
274000000       0.452484739        -27.9028302        0.874710897          -77.69937        0.874710897        -77.6993699         0.41976207         51.7060347
274500000       0.451795096        -27.8756103        0.875345486         -77.927417        0.875345485        -77.9274169        0.419824784         51.1371636
275000000       0.451158902        -27.8490639        0.875928659        -78.1515743        0.875928659        -78.1515743        0.419888287         50.5838304
275500000       0.450571893          -27.82327        0.876465237        -78.3720821        0.876465237        -78.3720821        0.419953536         50.0449063
276000000       0.450030226        -27.7982892        0.876959486        -78.5891615        0.876959486        -78.5891615        0.420021289         49.5193735
276500000       0.449530449        -27.7741569        0.877415116        -78.8030261        0.877415116        -78.8030261        0.420092022         49.0062829
277000000       0.449069404        -27.7509152        0.877835577        -79.0138538        0.877835577        -79.0138538        0.420166322         48.5048302
277500000       0.448644246        -27.7285864         0.87822388        -79.2218178        0.878223881        -79.2218178        0.420244549         48.0142583
278000000       0.448252388        -27.7071847        0.878582722        -79.4270783        0.878582723        -79.4270783        0.420326969         47.5338783
278500000       0.447891491         -27.686708         0.87891444        -79.6297933         0.87891444        -79.6297933        0.420413655         47.0630336
279000000       0.447559394        -27.6671679        0.879221289        -79.8300895        0.879221289        -79.8300895        0.420504868         46.6011786
279500000       0.447252792        -27.6492461        0.879502006        -80.0273847        0.879502006        -80.0273847         0.42059016         46.1495847
280000000       0.446969171         -27.633123        0.879757862        -80.2216214        0.879757862        -80.2216214        0.420666889         45.7081562
280500000       0.446708509        -27.6179077        0.879994587        -80.4138269        0.879994587        -80.4138269        0.420748404         45.2741027
281000000       0.446469316        -27.6035974        0.880213673        -80.6040912        0.880213673        -80.6040912        0.420834793         44.8470541
281500000       0.446250238        -27.5901782          0.8804164        -80.7925073          0.8804164        -80.7925073        0.420926001          44.426643
282000000       0.446050028        -27.5776349        0.880603938        -80.9791617        0.880603938        -80.9791617        0.421021962         44.0125298
282500000       0.445867551        -27.5659417        0.880777269        -81.1641453        0.880777269        -81.1641453        0.421122475         43.6043727
283000000       0.445701729        -27.5550917         0.88093745        -81.3475233         0.88093745        -81.3475233        0.421227572         43.2019083
283500000       0.445551577         -27.545068        0.881085375         -81.529366        0.881085375         -81.529366        0.421337158         42.8048664
284000000       0.445416186        -27.5358534        0.881221862        -81.7097393        0.881221862        -81.7097393         0.42145113         42.4129957
284500000       0.445294726        -27.5274204        0.881347581        -81.8887147        0.881347581        -81.8887147        0.421569268         42.0260351
285000000       0.445186397        -27.5197619        0.881463307          -82.06634        0.881463307          -82.06634        0.421691582         41.6437943
285500000       0.445090469        -27.5128606        0.881569679        -82.2426692        0.881569679        -82.2426691        0.421817964           41.26607
286000000       0.445006262        -27.5066995        0.881667285         -82.417753        0.881667286         -82.417753        0.421948305         40.8926724
286500000        0.44493316        -27.5012518        0.881756586        -82.5916494        0.881756586        -82.5916494        0.422082379         40.5233962
287000000       0.444870557         -27.496511        0.881838169         -82.764393        0.881838169         -82.764393        0.422220195         40.1581027
287500000       0.444812075        -27.4939115        0.881908437        -82.9346055        0.881908437        -82.9346055        0.422340068         39.7998337
288000000       0.444762686        -27.4920064        0.881972009        -83.1037326        0.881972009        -83.1037326        0.422463128         39.4452363
288500000       0.444722052        -27.4907402        0.882029273        -83.2718504        0.882029273        -83.2718504        0.422589589          39.094083
289000000       0.444689718        -27.4901077        0.882080674        -83.4389838        0.882080674        -83.4389838        0.422719461         38.7462752
289500000       0.444665272        -27.4900939        0.882126549        -83.6051656        0.882126549        -83.6051656         0.42285264          38.401694
290000000       0.444648325        -27.4906844        0.882167211         -83.770427        0.882167212         -83.770427        0.422989024         38.0602275
290500000        0.44463853         -27.491855        0.882202867        -83.9348074        0.882202868        -83.9348074        0.423128398         37.7217425
291000000       0.444635529        -27.4936019        0.882233876        -84.0983248        0.882233877        -84.0983248        0.423270781         37.3861667
291500000       0.444638999        -27.4959121        0.882260494        -84.2610055        0.882260494        -84.2610055        0.423416081         37.0534058
292000000       0.444648636        -27.4987726         0.88228296        -84.4228746         0.88228296        -84.4228746        0.423564206         36.7233703
292500000       0.444664169        -27.5021607        0.882301412         -84.583966        0.882301412         -84.583966        0.423714954         36.3959483
293000000       0.444685312        -27.5060744        0.882316147        -84.7442922        0.882316147        -84.7442922        0.423868353          36.071087
293500000        0.44471181        -27.5105021        0.882327361        -84.9038746        0.882327362        -84.9038746         0.42402432         35.7487105
294000000       0.444743422        -27.5154323        0.882335241        -85.0627337        0.882335242        -85.0627337        0.424182774         35.4287465
294500000       0.444779935        -27.5208438        0.882339873        -85.2208991        0.882339873        -85.2208991        0.424343522         35.1110991
295000000       0.444817307        -27.5274501        0.882340141         -85.377677        0.882340141         -85.377677        0.424495747         34.7971984
295500000       0.444855533        -27.5351776        0.882336386        -85.5331467        0.882336386        -85.5331467        0.424640257         34.4868319
296000000       0.444897911        -27.5433545        0.882330037        -85.6879751        0.882330037        -85.6879751        0.424787017         34.1785749
296500000       0.444944279        -27.5519609         0.88232114        -85.8421883         0.88232114        -85.8421883        0.424935845          33.872345
297000000       0.444994452        -27.5609975        0.882309905        -85.9957911        0.882309905         -85.995791        0.425086786         33.5681175
297500000       0.445048269        -27.5704553        0.882296451        -86.1487978        0.882296451        -86.1487978        0.425239774         33.2658425
298000000       0.445105579        -27.5803254        0.882280888        -86.3012224        0.882280889        -86.3012224        0.425394746         32.9654724
298500000       0.445166251        -27.5905889        0.882263235        -86.4530881        0.882263236        -86.4530881        0.425551525         32.6669338
299000000       0.445230131        -27.6012479        0.882243679        -86.6043973        0.882243679        -86.6043973        0.425710168         32.3702109
299500000       0.445297089        -27.6122942        0.882222315        -86.7551622        0.882222315        -86.7551622        0.425870617         32.0752618
300000000       0.445366998          -27.62372        0.882199232        -86.9053943        0.882199232        -86.9053943        0.426032816         31.7820468
300500000       0.445439754        -27.6355076        0.882174428         -87.055115        0.882174429         -87.055115          0.4261966         31.4904998
301000000       0.445515229        -27.6476598        0.882148072        -87.2043246        0.882148072        -87.2043246        0.426362028         31.2006117
301500000       0.445593313        -27.6601694         0.88212024        -87.3530334         0.88212024        -87.3530334         0.42652905         30.9123474
302000000       0.445673902        -27.6730297        0.882091004        -87.5012513        0.882091004        -87.5012513        0.426697617         30.6256729
302500000       0.445756427        -27.6862995        0.882060246        -87.6489212        0.882060246        -87.6489213        0.426866371         30.3406792
303000000       0.445833572        -27.7010892        0.882026677        -87.7949248        0.882026677        -87.7949248         0.42701784         30.0595612
303500000       0.445912868        -27.7161995        0.881991962        -87.9404719        0.881991962         -87.940472        0.427170766         29.7799038
304000000        0.44599423        -27.7316244        0.881956158        -88.0855709        0.881956158         -88.085571        0.427325106         29.5016787
304500000       0.446077595        -27.7473478        0.881919232          -88.23024        0.881919233          -88.23024        0.427480704         29.2248313
305000000       0.446162869         -27.763374        0.881881324        -88.3744765        0.881881324        -88.3744765        0.427637633         28.9493632
305500000       0.446249981        -27.7796976        0.881842483        -88.5182877        0.881842483        -88.5182877        0.427795854         28.6752496
306000000       0.446338859         -27.796313        0.881802757        -88.6616809        0.881802757        -88.6616809        0.427955327         28.4024662
306500000       0.446429453        -27.8132048        0.881762102         -88.804673        0.881762103         -88.804673        0.428115905         28.1309619
307000000       0.446521681         -27.830378         0.88172065        -88.9472605         0.88172065        -88.9472605        0.428277663         27.8607421
307500000       0.446615483        -27.8478277        0.881678442        -89.0894497        0.881678442        -89.0894497        0.428440567          27.591785
308000000         0.4467108        -27.8655491        0.881635517        -89.2312469        0.881635517        -89.2312469        0.428604582         27.3240697
308500000       0.446807589        -27.8835272        0.881591824        -89.3726681        0.881591824        -89.3726681        0.428769564         27.0575479
309000000       0.446905781        -27.9017676        0.881547487         -89.513709        0.881547487         -89.513709        0.428935594          26.792228
309500000       0.447005324        -27.9202659        0.881502542         -89.654375        0.881502542         -89.654375        0.429102639          26.528091
310000000       0.447106166        -27.9390175         0.88145702        -89.7946716         0.88145702        -89.7946716        0.429270671         26.2651187
310500000       0.447203078        -27.9587015        0.881410272        -89.9338892        0.881410272        -89.9338892        0.429428079         26.0046306
311000000       0.447297692        -27.9790851        0.881362647         -90.072269        0.881362647         -90.072269        0.429578806         25.7461596
