! Created Mon Nov 27 15:43:32 2023
# hz S ma R 50
! 2 Port Network Data from SP1.SP block
! freq  magS11  angS11  magS21  angS21  magS12  angS12  magS22  angS22  
!     
250000000       0.495154356        -36.8154214        0.855787683         86.7978412        0.855787682         86.7978411        0.467422256         28.1439333
250500000       0.495523958        -36.8086382        0.855625829         86.5878791        0.855625829          86.587879        0.468005553         27.7230035
251000000       0.495890427        -36.8028499        0.855465497         86.3790968        0.855465496         86.3790967        0.468584099         27.3056312
251500000       0.496253723         -36.798038         0.85530671         86.1714826        0.855306709         86.1714825        0.469157867         26.8917678
252000000       0.496613813        -36.7941843        0.855149491         85.9650249        0.855149491         85.9650247        0.469726827         26.4813654
252500000       0.496970432        -36.7913379        0.854993481          85.759769        0.854993481          85.759769        0.470289501          26.074462
253000000       0.497322598        -36.7899101        0.854836518         85.5560733        0.854836518         85.5560732        0.470838056         25.6715379
253500000       0.497671013        -36.7895701        0.854680151         85.3536533        0.854680152         85.3536533         0.47137823          25.272117
254000000       0.498015367        -36.7904163        0.854523747         85.1525951        0.854523748         85.1525951        0.471907795         24.8762706
254500000        0.49835625        -36.7921171        0.854369081         84.9526257        0.854369082         84.9526257        0.472432503         24.4836284
255000000       0.498693712        -36.7946581        0.854216197         84.7537358        0.854216197         84.7537358        0.472952523         24.0941474
255500000       0.499027736        -36.7980232        0.854065106         84.5559149        0.854065106         84.5559149         0.47346784         23.7077856
256000000       0.499358306        -36.8021969        0.853915823         84.3591524        0.853915823         84.3591525        0.473978445         23.3245016
256500000       0.499685337        -36.8071622        0.853768331         84.1634365        0.853768331         84.1634365        0.474484149         22.9442544
257000000       0.500008885        -36.8129057        0.853622669         83.9687584        0.853622669         83.9687583        0.474985123         22.5670041
257500000       0.500328939        -36.8194127        0.853478846         83.7751081        0.853478846          83.775108        0.475481363         22.1927112
258000000       0.500645488        -36.8266687        0.853336871         83.5824756        0.853336872         83.5824755        0.475972865          21.821337
258500000       0.500958454        -36.8346576        0.853196726         83.3908494        0.853196726         83.3908493        0.476459446         21.4528425
259000000       0.501267899        -36.8433672        0.853058445         83.2002214        0.853058445         83.2002213        0.476941285         21.0871908
259500000       0.501573817        -36.8527839        0.852922035          83.010582        0.852922035          83.010582        0.477418385         20.7243449
260000000       0.501876202        -36.8628942        0.852787503         82.8219218        0.852787503         82.8219218        0.477890746         20.3642686
260500000       0.502174984        -36.8736827        0.852654827         82.6342295        0.852654828         82.6342295        0.478358195         20.0069247
261000000       0.502470228        -36.8851385        0.852524039         82.4474977         0.85252404         82.4474977        0.478820915         19.6522792
261500000       0.502761667        -36.8973285        0.852394764         82.2617893        0.852394765         82.2617892        0.479277385         19.3003952
262000000       0.503048168        -36.9105748        0.852265413         82.0773987        0.852265415         82.0773987        0.479721189         18.9516459
262500000       0.503331049        -36.9244418        0.852137973         81.8939349        0.852137974         81.8939349        0.480160209         18.6054785
263000000       0.503610378        -36.9389196        0.852012471         81.7113909        0.852012471         81.7113909        0.480594632         18.2618618
263500000        0.50388616        -36.9539964        0.851888907         81.5297581        0.851888907         81.5297581        0.481024467         17.9207634
264000000       0.504158398        -36.9696609        0.851767283         81.3490278        0.851767282         81.3490278        0.481449723         17.5821517
264500000       0.504426388        -36.9860867        0.851646593         81.1693564        0.851646593         81.1693564         0.48186657         17.2461837
265000000       0.504690019        -37.0033119        0.851526625         80.9907797        0.851526625         80.9907797        0.482274269         16.9128753
265500000       0.504950114        -37.0210854        0.851408629         80.8130765        0.851408629         80.8130765        0.482677521         16.5819517
266000000        0.50520668        -37.0393965        0.851292604         80.6362386        0.851292604         80.6362386         0.48307634         16.2533833
266500000       0.505459661        -37.0582326        0.851178522          80.460256        0.851178521          80.460256        0.483470566         15.9271388
267000000       0.505709132        -37.0775858        0.851066405         80.2851228        0.851066404         80.2851228        0.483860386         15.6031917
267500000       0.505955102         -37.097446        0.850956249         80.1108312        0.850956248         80.1108312        0.484245815          15.281514
268000000       0.506197581        -37.1178034        0.850848052         79.9373734         0.85084805         79.9373735        0.484626869          14.962078
268500000       0.506436517         -37.138646        0.850741781         79.7647399         0.85074178           79.76474         0.48500339         14.6448536
269000000       0.506671985        -37.1599667        0.850637461         79.5929251         0.85063746         79.5929252        0.485375569         14.3298167
269500000       0.506903997        -37.1817563        0.850535084         79.4219216        0.850535084         79.4219216        0.485743423         14.0169408
270000000       0.507132567        -37.2040056        0.850434647          79.251722        0.850434647         79.2517219        0.486106969         13.7061998
270500000       0.507357272        -37.2267908        0.850335733         79.0824001        0.850335734         79.0824001        0.486464333         13.3976726
271000000       0.507577075        -37.2503642        0.850237231         78.9141978        0.850237231         78.9141978        0.486810599          13.091652
271500000       0.507793471        -37.2743653        0.850140679         78.7467736        0.850140679         78.7467736        0.487152703         12.7876804
272000000       0.508006475        -37.2987856         0.85004607         78.5801205         0.85004607         78.5801205        0.487490663         12.4857335
272500000        0.50821604        -37.3236144        0.849953373         78.4142296        0.849953374         78.4142296        0.487824331         12.1857841
273000000       0.508422243        -37.3488462        0.849862606         78.2490962        0.849862606         78.2490961        0.488153894          11.887812
273500000       0.508625101        -37.3744731         0.84977376         78.0847135         0.84977376         78.0847134        0.488479373          11.591794
274000000       0.508824629        -37.4004874        0.849686828         77.9210749        0.849686829         77.9210748        0.488800787         11.2977074
274500000       0.509020782        -37.4268787        0.849601777         77.7581717        0.849601778         77.7581716        0.489117989         11.0055261
275000000        0.50921364        -37.4536424        0.849518625         77.5959996        0.849518625         77.5959995        0.489431168         10.7152315
275500000       0.509402393        -37.4809528        0.849436492         77.4347236        0.849436492         77.4347235         0.48973669         10.4269857
276000000       0.509587058         -37.508799         0.84935539         77.2743347        0.849355389         77.2743346        0.490034636         10.1407616
276500000       0.509768416        -37.5369885        0.849276158         77.1146521        0.849276157         77.1146521        0.490328537         9.85634854
277000000       0.509946547         -37.565517        0.849198814         76.9556719        0.849198814         76.9556718        0.490618582         9.57372956
277500000       0.510121467        -37.5943779        0.849123349         76.7973879        0.849123348         76.7973879        0.490904792         9.29288434
278000000       0.510293196        -37.6235646        0.849049752         76.6397942        0.849049751         76.6397942        0.491187188         9.01379285
278500000       0.510461692        -37.6530677        0.848977988         76.4828826        0.848977987         76.4828826        0.491465625         8.73643116
279000000       0.510627034        -37.6828838        0.848908073         76.3266496        0.848908073         76.3266495        0.491740293         8.46078392
279500000       0.510788767        -37.7130992        0.848839622         76.1711815        0.848839623         76.1711814        0.492009344         8.18694648
280000000       0.510945889        -37.7439055        0.848771828         76.0166702         0.84877183         76.0166701        0.492268797         7.91514278
280500000       0.511099855        -37.7749986        0.848705851         75.8628142        0.848705852         75.8628141         0.49252446         7.64498411
281000000       0.511250744        -37.8063757        0.848641702         75.7096102        0.848641702         75.7096101        0.492776519         7.37645658
281500000       0.511398577        -37.8380311        0.848579371         75.5570526        0.848579371         75.5570526        0.493024996         7.10954231
282000000       0.511543372        -37.8699591        0.848518847         75.4051361        0.848518846         75.4051362        0.493269912         6.84422365
282500000       0.511685092        -37.9021514        0.848460092         75.2538531        0.848460092         75.2538531        0.493511124         6.58047864
283000000       0.511823813        -37.9346055        0.848403123         75.1032005        0.848403122         75.1032004         0.49374882         6.31829464
283500000       0.511959557         -37.967316        0.848347927         74.9531731        0.848347926          74.953173        0.493983022         6.05765476
284000000       0.512092342        -38.0002778        0.848294494         74.8037656        0.848294493         74.8037655        0.494213752         5.79854239
284500000       0.512222129        -38.0334827        0.848242789         74.6549707        0.848242788         74.6549706        0.494440872         5.54093623
285000000       0.512348998        -38.0669287        0.848192824         74.5067856        0.848192824         74.5067855        0.494664565         5.28482492
285500000       0.512472968        -38.1006109        0.848144588         74.3592053        0.848144588         74.3592052        0.494884853         5.03019253
286000000       0.512594059        -38.1345245        0.848098069         74.2122249         0.84809807         74.2122248        0.495101758         4.77702335
286500000        0.51271126        -38.1688367        0.848052462         74.0660115        0.848052463         74.0660115        0.495311523         4.52547539
287000000       0.512824858        -38.2035052         0.84800796         73.9205229        0.848007959         73.9205228         0.49551516         4.27549535
287500000       0.512935641        -38.2383874        0.847965157         73.7756165        0.847965157         73.7756164         0.49571555         4.02692666
288000000       0.513043628        -38.2734787        0.847924044         73.6312876        0.847924043         73.6312876        0.495912715         3.77975461
288500000       0.513148216        -38.3088676        0.847884227          73.487629        0.847884227          73.487629        0.496104533         3.53407955
289000000       0.513248595         -38.344701        0.847845169          73.344793        0.847845169          73.344793        0.496288112          3.2900767
289500000       0.513346244        -38.3807269         0.84780778         73.2025174        0.847807781         73.2025174        0.496468599         3.04742042
290000000       0.513441183        -38.4169411        0.847772048         73.0607979        0.847772049         73.0607978        0.496646013         2.80609694
290500000       0.513533378        -38.4533366        0.847737937         72.9196274        0.847737937         72.9196274        0.496820219         2.56608708
291000000       0.513622904        -38.4899125        0.847705458         72.7790042        0.847705458         72.7790041        0.496991394          2.3273829
291500000        0.51370978         -38.526665          0.8476746         72.6389239          0.8476746         72.6389238        0.497159562         2.08997118
292000000       0.513794026        -38.5635904         0.84764535         72.4993822         0.84764535         72.4993822        0.497324741         1.85383886
292500000       0.513875608        -38.6006817        0.847617671         72.3603726        0.847617672         72.3603726        0.497486797         1.61896739
293000000       0.513954599        -38.6379385        0.847591577         72.2218933        0.847591578         72.2218933        0.497645907         1.38534967
293500000       0.514031021        -38.6753572        0.847567055         72.0839402        0.847567056         72.0839401        0.497802092          1.1529732
294000000       0.514104892        -38.7129344        0.847544094         71.9465092        0.847544095         71.9465091        0.497955374        0.921825623
294500000       0.514176178        -38.7506634        0.847522656         71.8095938        0.847522657         71.8095937        0.498105616         0.69188883
295000000       0.514244954         -38.788544        0.847502755         71.6731925        0.847502756         71.6731924        0.498252996        0.463156651
295500000       0.514311237        -38.8265729        0.847484378         71.5373014        0.847484379         71.5373013        0.498397534        0.235617234
296000000       0.514375048        -38.8647469        0.847467514         71.4019166        0.847467514         71.4019165        0.498539252      0.00925888526
296500000       0.514436353        -38.9030596        0.847452127         71.2670316        0.847452127         71.2670316        0.498678017       -0.215936045
297000000       0.514495224         -38.941511        0.847438228         71.1326453        0.847438228         71.1326453        0.498814002       -0.439972908
297500000       0.514549928        -38.9803637        0.847424795         70.9990355        0.847424795         70.9990355        0.498941595       -0.662564497
298000000       0.514600184        -39.0196552         0.84741172         70.8662452         0.84741172         70.8662452        0.499059952       -0.883656925
298500000       0.514648024        -39.0590667        0.847400096         70.7339341        0.847400096         70.7339341         0.49917555        -1.10364169
299000000        0.51469352        -39.0985986        0.847389937         70.6021011        0.847389937         70.6021011        0.499288565        -1.32252317
299500000       0.514736692        -39.1382482        0.847381231         70.4707426        0.847381231         70.4707426        0.499399015        -1.54031182
300000000       0.514777558        -39.1780128        0.847373965         70.3398553        0.847373965         70.3398553        0.499506918        -1.75701801
300500000       0.514816086        -39.2178862        0.847368104         70.2094328        0.847368104         70.2094328        0.499612141        -1.97265834
301000000       0.514852345        -39.2578692        0.847363659         70.0794746        0.847363659         70.0794745        0.499714855        -2.18723656
301500000       0.514886355        -39.2979593        0.847360619         69.9499771        0.847360619          69.949977         0.49981508         -2.4007626
302000000       0.514918133        -39.3381539        0.847358973         69.8209369        0.847358972         69.8209368        0.499912834        -2.61324627
302500000       0.514947646        -39.3784472        0.847358683         69.6923482        0.847358683         69.6923481        0.500007985        -2.82470392
303000000       0.514974964          -39.41884        0.847359763         69.5642103        0.847359763         69.5642102        0.500100702        -3.03513852
303500000       0.515000105          -39.45933        0.847362201         69.4365198        0.847362202         69.4365197        0.500191003        -3.24455952
304000000       0.515023087        -39.4999148        0.847365986         69.3092736        0.847365987         69.3092735        0.500278907        -3.45297624
304500000       0.515043877        -39.5405887         0.84737108         69.1824659        0.847371081         69.1824657        0.500364281        -3.66040469
305000000       0.515062544        -39.5813527        0.847377498          69.056096        0.847377499         69.0560959        0.500447294        -3.86684722
305500000       0.515079106        -39.6222047        0.847385228          68.930161        0.847385228         68.9301608        0.500527964        -4.07231277
306000000       0.515093579        -39.6631425        0.847394258         68.8046576        0.847394258         68.8046575        0.500606309        -4.27681021
306500000         0.5151052        -39.7042593        0.847404244         68.6796909        0.847404244         68.6796908        0.500680064        -4.48022711
307000000       0.515113472        -39.7456317        0.847414965         68.5553449        0.847414966         68.5553448        0.500747769        -4.68246895
307500000       0.515119717        -39.7870807        0.847426962         68.4314188        0.847426962         68.4314187        0.500813254        -4.88377373
308000000       0.515123952        -39.8286043        0.847440222         68.3079097        0.847440222         68.3079097        0.500876535        -5.08414981
308500000       0.515124942        -39.8703577        0.847454115         68.1849881        0.847454115          68.184988        0.500933985        -5.28344307
309000000       0.515123398        -39.9122554        0.847468976         68.0625585        0.847468976         68.0625584        0.500987661        -5.48174778
309500000       0.515119902        -39.9542194        0.847485076         67.9405349        0.847485076         67.9405348        0.501039232        -5.67915231
310000000       0.515114471        -39.9962479        0.847502404         67.8189144        0.847502403         67.8189144        0.501088715        -5.87566454
310500000       0.515107073        -40.0383354        0.847520922         67.6976916        0.847520922         67.6976915        0.501135978        -6.07129954
311000000       0.515097773        -40.0804839        0.847540647         67.5768664        0.847540647         67.5768663        0.501181186        -6.26605778
