! Created Mon Nov 27 15:34:35 2023
# hz S ma R 50
! 2 Port Network Data from SP1.SP block
! freq  magS11  angS11  magS21  angS21  magS12  angS12  magS22  angS22  
!     
250000000       0.500362032         -38.222383        0.852261967         85.5351238        0.852261968         85.5351238        0.473118107         27.1581359
250500000       0.500583886        -38.2167885        0.852177805         85.3284026        0.852177805         85.3284025        0.473549411         26.7439552
251000000       0.500803653         -38.212046        0.852094743          85.122796        0.852094743         85.1227959        0.473977208         26.3330502
251500000       0.501021295         -38.208141        0.852012805         84.9182931        0.852012804         84.9182931        0.474401462         25.9253793
252000000       0.501236774        -38.2050592        0.851932012         84.7148834        0.851932012         84.7148834        0.474822142         25.5209015
252500000       0.501449805        -38.2028473        0.851852037         84.5126116        0.851852036         84.5126116        0.475237544         25.1196606
253000000       0.501659563         -38.201904        0.851770736         84.3118249        0.851770736         84.3118249        0.475640332         24.7221395
253500000       0.501866661        -38.2019168        0.851689629         84.1122483        0.851689628         84.1122483        0.476036061         24.3278734
254000000        0.50207082        -38.2029828        0.851608095         83.9139654        0.851608094         83.9139654        0.476422564         23.9369398
254500000       0.502272497        -38.2047856        0.851527892         83.7167131        0.851527891         83.7167131        0.476805146         23.5489737
255000000       0.502471774        -38.2073176        0.851449036         83.5204829        0.851449036         83.5204828        0.477184222         23.1639391
255500000        0.50266863        -38.2105659        0.851371542         83.3252651        0.851371541          83.325265        0.477559772         22.7817999
256000000       0.502863041        -38.2145184         0.85129542           83.13105         0.85129542         83.1310501        0.477931779         22.4025203
256500000       0.503054883        -38.2191575        0.851220681         82.9378267        0.851220681         82.9378267        0.478299793         22.0260622
257000000       0.503244242        -38.2244764        0.851147338         82.7455872        0.851147337         82.7455872        0.478664233         21.6523933
257500000       0.503431103        -38.2304634          0.8510754         82.5543223          0.8510754         82.5543222        0.479025085         21.2814795
258000000       0.503615449        -38.2371068        0.851004879         82.3640228        0.851004879         82.3640227        0.479382338          20.913287
258500000       0.503797161        -38.2443898         0.85093578         82.1746779        0.850935779         82.1746778         0.47973555         20.5477788
259000000        0.50397633        -38.2523064        0.850868113         81.9862803        0.850868113         81.9862802        0.480085144         20.1849256
259500000       0.504152944        -38.2608459        0.850801887         81.7988212        0.850801887         81.7988211        0.480431112         19.8246953
260000000       0.504326992        -38.2699972        0.850737108         81.6122919        0.850737107         81.6122919        0.480773448         19.4670562
260500000       0.504498361        -38.2797438        0.850673779         81.4266819        0.850673779         81.4266818         0.48111172         19.1119717
261000000       0.504667145        -38.2900811         0.85061191         81.2419844        0.850611909         81.2419844         0.48144635         18.7594158
261500000       0.504833097        -38.3010756         0.85055113          81.058261         0.85055113         81.0582609        0.481775856         18.4094554
262000000       0.504995179        -38.3130405        0.850489878         80.8757976        0.850489878         80.8757975        0.482093998         18.0624657
262500000       0.505154538         -38.325553        0.850430133         80.6942151        0.850430134          80.694215        0.482408172         17.7178962
263000000       0.505311271        -38.3386097        0.850371901         80.5135075        0.850371901         80.5135074        0.482718797         17.3757239
263500000       0.505465374         -38.352201        0.850315182         80.3336669        0.850315183         80.3336668        0.483025873         17.0359207
264000000       0.505616844        -38.3663176         0.85025998         80.1546853        0.850259981         80.1546853        0.483329402         16.6984587
264500000       0.505764999        -38.3811248        0.850205332          79.976714        0.850205333         79.9767139        0.483625413         16.3634932
265000000       0.505909771        -38.3966656        0.850151004         79.7997885        0.850151005         79.7997884        0.483913422         16.0310488
265500000       0.506051895        -38.4126989        0.850098229         79.6236949        0.850098229         79.6236948        0.484197985         15.7008541
266000000       0.506191371         -38.429216        0.850047005         79.4484258        0.850047005         79.4484257        0.484479107         15.3728832
266500000       0.506328102        -38.4462015         0.84999733         79.2739715         0.84999733         79.2739714        0.484756379         15.0471019
267000000       0.506462189        -38.4636538        0.849949204          79.100327        0.849949204         79.1003269         0.48503022          14.723493
267500000       0.506593636        -38.4815645        0.849902627          78.927485        0.849902627         78.9274849        0.485300635         14.4020314
268000000       0.506722445        -38.4999256        0.849857596         78.7554385        0.849857596         78.7554384        0.485567631         14.0826927
268500000       0.506848523         -38.518722        0.849814105         78.5841778        0.849814105         78.5841778        0.485830805         13.7654433
269000000       0.506971972        -38.5379528        0.849772156         78.4136986        0.849772156         78.4136986        0.486090575         13.4502682
269500000       0.507092798        -38.5576103        0.849731745         78.2439939        0.849731745         78.2439938         0.48634695          13.137144
270000000       0.507211004         -38.577687         0.84969287         78.0750568         0.84969287         78.0750568        0.486599939         12.8260475
270500000       0.507326157        -38.5982535        0.849655144          77.906959        0.849655144         77.9069589        0.486847475         12.5170519
271000000       0.507437327        -38.6195625        0.849617441          77.739936        0.849617441         77.7399359        0.487085006         12.2104584
271500000        0.50754589        -38.6412633        0.849581291         77.5736566         0.84958129         77.5736565        0.487319267         11.9058143
272000000       0.507651854         -38.663349        0.849546687         77.4081145        0.849546686         77.4081144        0.487550268         11.6030981
272500000       0.507755132        -38.6858049        0.849513623         77.2433005        0.849513623         77.2433003         0.48777762         11.3022773
273000000       0.507855828        -38.7086319        0.849482096          77.079211        0.849482095         77.0792108        0.488001733         11.0033415
273500000        0.50795395        -38.7318234          0.8494521         76.9158398          0.8494521         76.9158396         0.48822262           10.70627
274000000       0.508049507        -38.7553728         0.84942363         76.7531807         0.84942363         76.7531806        0.488440292         10.4110425
274500000       0.508142416         -38.779266        0.849396675          76.591225        0.849396675         76.5912248        0.488654365         10.1176268
275000000       0.508232779        -38.8035043        0.849371235         76.4299693        0.849371235         76.4299691        0.488865248         9.82601459
275500000       0.508319843        -38.8282595        0.849346441         76.2695739        0.849346441         76.2695737        0.489069401          9.5363697
276000000       0.508403613        -38.8535221        0.849322305         76.1100302        0.849322305           76.11003        0.489266895         9.24866704
276500000       0.508484773        -38.8790991        0.849299684         75.9511626        0.849299684         75.9511624        0.489460924          8.9626896
277000000       0.508563427        -38.9049927        0.849278576         75.7929682        0.849278576          75.792968        0.489651895         8.67843116
277500000       0.508639584        -38.9311971        0.849258972         75.6354414        0.849258973         75.6354412        0.489839819         8.39587338
278000000       0.508713257        -38.9577067        0.849240866         75.4785766        0.849240867         75.4785765        0.490024711         8.11499817
278500000       0.508784367        -38.9845079        0.849224245         75.3223654        0.849224246         75.3223653        0.490206198         7.83577423
279000000       0.508853017        -39.0116032        0.849209107         75.1668053        0.849209107         75.1668052         0.49038468         7.55819706
279500000       0.508918774        -39.0390786         0.84919507         75.0119806         0.84919507         75.0119804        0.490558353         7.28236293
280000000       0.508980686        -39.0671237        0.849181331          74.858078        0.849181331         74.8580778        0.490723333         7.00849555
280500000       0.509040085        -39.0954344        0.849169067         74.7048037        0.849169067         74.7048036        0.490885044         6.73620105
281000000       0.509097072        -39.1240141        0.849158273         74.5521557        0.849158274         74.5521556        0.491043882         6.46547674
281500000       0.509151661        -39.1528579        0.849148943         74.4001289        0.849148943         74.4001287        0.491199862         6.19630638
282000000       0.509203864        -39.1819609        0.849141066         74.2487182        0.849141066          74.248718           0.491353         5.92867395
282500000       0.509253608        -39.2113097        0.849134629         74.0979154         0.84913463         74.0979153         0.49150293         5.66254887
283000000       0.509300993        -39.2409082        0.849129629         73.9477188        0.849129629         73.9477186        0.491650048         5.39792997
283500000       0.509346033        -39.2707518        0.849126056         73.7981234        0.849126057         73.7981233        0.491794367         5.13480189
284000000       0.509388742        -39.3008362        0.849123902         73.6491246        0.849123903         73.6491245        0.491935903         4.87314948
284500000       0.509429047         -39.331148        0.849123155         73.5007142        0.849123155         73.5007141        0.492074298         4.61294231
285000000       0.509467048        -39.3616917        0.849123808         73.3528908        0.849123808         73.3528907        0.492209941         4.35418075
285500000       0.509502759        -39.3924629        0.849125853         73.2056496        0.849125853         73.2056496        0.492342847         4.09685027
286000000       0.509536194        -39.4234574        0.849129282         73.0589862        0.849129281         73.0589861        0.492473032         3.84093651
286500000       0.509566362         -39.454835        0.849133311         72.9130617         0.84913331         72.9130616        0.492596619          3.5865864
287000000       0.509593559        -39.4865607        0.849138115         72.7678364        0.849138115         72.7678363        0.492714801         3.33375896
287500000       0.509618523        -39.5184939        0.849144292         72.6231722        0.849144292         72.6231721        0.492830374         3.08229993
288000000       0.509641269        -39.5506308        0.849151833         72.4790648        0.849151833         72.4790647        0.492943354         2.83219582
288500000       0.509661188        -39.5830534        0.849160365         72.3356034        0.849160365         72.3356033        0.493051458         2.58353556
289000000        0.50967753        -39.6159145        0.849169332         72.1929376        0.849169332         72.1929375         0.49315207         2.33650446
289500000       0.509691699        -39.6489641        0.849179649         72.0508124        0.849179648         72.0508123        0.493250199         2.09078147
290000000       0.509703711        -39.6821989        0.849191305         71.9092236        0.849191305         71.9092236        0.493345861         1.84635392
290500000       0.509713498        -39.7156057        0.849204285         71.7681637        0.849204285         71.7681637        0.493438709         1.60319222
291000000       0.509721156        -39.7491907        0.849218586          71.627632        0.849218585          71.627632        0.493529119         1.36130082
291500000       0.509726701        -39.7829503        0.849234196         71.4876246        0.849234196         71.4876246        0.493617106         1.12066753
292000000       0.509730146        -39.8168812        0.849251108         71.3481375        0.849251107         71.3481375        0.493702685        0.881280353
292500000       0.509731427        -39.8509706        0.849269304          71.209163        0.849269303          71.209163        0.493785516        0.643109523
293000000       0.509730638        -39.8852248         0.84928878          71.070701         0.84928878         71.0707009         0.49386597        0.406160938
293500000       0.509727794        -39.9196407        0.849309528         70.9327475        0.849309528         70.9327474        0.493944061        0.170423054
294000000       0.509722908        -39.9542151        0.849331537         70.7952987        0.849331538         70.7952986        0.494019804      -0.0641155248
294500000       0.509715918        -39.9889351         0.84935479         70.6583473         0.84935479         70.6583472        0.494092863       -0.297484117
295000000       0.509706916        -40.0238076        0.849379284          70.521893        0.849379285         70.5218929        0.494163605        -0.52967606
295500000       0.509695916        -40.0588295        0.849405011         70.3859323        0.849405011         70.3859323        0.494232045       -0.760702314
296000000       0.509682933        -40.0939981        0.849431959         70.2504615         0.84943196         70.2504615        0.494298198       -0.990573695
296500000       0.509667905        -40.1293004        0.849460114         70.1154732        0.849460114         70.1154732        0.494361734        -1.21931963
297000000       0.509650922        -40.1647435        0.849489472         69.9809676        0.849489472         69.9809675        0.494423013        -1.44693221
297500000       0.509630318        -40.2005898        0.849519006          69.847215        0.849519006         69.8472149        0.494476562        -1.67312769
298000000       0.509605812        -40.2368772        0.849548609         69.7142576        0.849548609         69.7142575        0.494521549         -1.8978527
298500000       0.509579329        -40.2732812        0.849579402          69.581763        0.849579402         69.5817629        0.494564094        -2.12150536
299000000       0.509550959        -40.3098093        0.849611382         69.4497317        0.849611382         69.4497316        0.494604553        -2.34407668
299500000       0.509520716         -40.346459        0.849644539         69.3181604        0.849644539         69.3181602        0.494642941        -2.56557636
300000000       0.509488615        -40.3832279        0.849678863         69.1870456        0.849678862         69.1870455        0.494679271        -2.78601402
300500000       0.509454597        -40.4201032        0.849714334         69.0563804        0.849714334         69.0563802        0.494713217         -3.0054187
301000000       0.509418749        -40.4570928        0.849750953         68.9261652        0.849750952         68.9261651        0.494745133        -3.22378048
301500000       0.509381086        -40.4941943        0.849788708          68.796397        0.849788708         68.7963968        0.494775034         -3.4411086
302000000       0.509341621        -40.5314056        0.849827592         68.6670725        0.849827592         68.6670723        0.494802932        -3.65741219
302500000       0.509300296        -40.5687139        0.849867585         68.5381846        0.849867585         68.5381845        0.494828509        -3.87272019
303000000       0.509257198        -40.6061273        0.849908686         68.4097342        0.849908686         68.4097341        0.494852111        -4.08702186
303500000        0.50921234        -40.6436438        0.849950886         68.2817183        0.849950886         68.2817182        0.494873753          -4.300326
304000000       0.509165737        -40.6812611        0.849994174         68.1541338        0.849994174         68.1541337        0.494893448        -4.51264131
304500000       0.509117331        -40.7189665        0.850038532         68.0269736        0.850038532         68.0269735         0.49491088        -4.72399671
305000000       0.509067206        -40.7567686         0.85008396         67.9002388         0.85008396         67.9002387        0.494926392         -4.9343806
305500000       0.509015377        -40.7946652        0.850130448         67.7739265        0.850130448         67.7739264        0.494939999        -5.14380135
306000000       0.508961857        -40.8326544        0.850177986         67.6480338        0.850177987         67.6480336        0.494951714        -5.35226724
306500000       0.508905878        -40.8708228        0.850226244         67.5226615        0.850226245         67.5226613        0.494959141        -5.55968148
307000000       0.508846973        -40.9092545        0.850274984         67.3978931        0.850274984         67.3978929         0.49496103        -5.76593753
307500000       0.508786425        -40.9477702        0.850324754         67.2735331        0.850324754         67.2735329        0.494961118         -5.9712684
308000000       0.508724247        -40.9863682        0.850375545         67.1495787        0.850375545         67.1495785        0.494959417         -6.1756819
308500000       0.508659219        -41.0251969        0.850426739         67.0261941        0.850426739          67.026194        0.494952209        -6.37904106
309000000       0.508592044        -41.0641779         0.85047866         66.9032883         0.85047866         66.9032882        0.494941674        -6.58142393
309500000       0.508523285        -41.1032335        0.850531583         66.7807776        0.850531582         66.7807775        0.494929435         -6.7829167
310000000       0.508452955        -41.1423618        0.850585498         66.6586593        0.850585498         66.6586592        0.494915504        -6.98352677
310500000       0.508380999        -41.1815503        0.850640387         66.5369267        0.850640386         66.5369266        0.494899576        -7.18328274
311000000       0.508307497        -41.2208082        0.850696249         66.4155813        0.850696248         66.4155812        0.494881982        -7.38217076
